Freq.	V(out)
1.00000000000000e+000	-1.60989579280315e+001,-1.21039941576205e+002
1.02329299228075e+000	-1.64909666395103e+001,-1.23836944628276e+002
1.04712854805090e+000	-1.69013347937010e+001,-1.26697503876828e+002
1.07151930523761e+000	-1.73309165628334e+001,-1.29622986459198e+002
1.09647819614318e+000	-1.77806053128684e+001,-1.32614783347213e+002
1.12201845430196e+000	-1.82513353519837e+001,-1.35674309340560e+002
1.14815362149688e+000	-1.87440837432915e+001,-1.38803003021211e+002
1.17489755493953e+000	-1.92598722034597e+001,-1.42002326665164e+002
1.20226443461741e+000	-1.97997690731284e+001,-1.45273766107980e+002
1.23026877081238e+000	-2.03648913651043e+001,-1.48618830559993e+002
1.25892541179417e+000	-2.09564069024088e+001,-1.52039052366803e+002
1.28824955169313e+000	-2.15755365377163e+001,-1.55535986710451e+002
1.31825673855641e+000	-2.22235564606164e+001,-1.59111211246442e+002
1.34896288259165e+000	-2.29018005963109e+001,-1.62766325671208e+002
1.38038426460288e+000	-2.36116630992455e+001,-1.66502951214410e+002
1.41253754462275e+000	-2.43546009396448e+001,-1.70322730050138e+002
1.44543977074593e+000	-2.51321365913026e+001,-1.74227324620456e+002
1.47910838816821e+000	-2.59458608189346e+001,-1.78218416864728e+002
1.51356124843621e+000	-2.67974355673513e+001,-1.82297707347084e+002
1.54881661891248e+000	-2.76885969600125e+001,-1.86466914274615e+002
1.58489319246111e+000	-2.86211584030141e+001,-1.90727772397922e+002
1.62181009735893e+000	-2.95970137949572e+001,-1.95082031785256e+002
1.65958690743756e+000	-3.06181408572604e+001,-1.99531456460997e+002
1.69824365246174e+000	-3.16866045690002e+001,-2.04077822898650e+002
1.73780082874937e+000	-3.28045607200490e+001,-2.08722918357806e+002
1.77827941003892e+000	-3.39742595802527e+001,-2.13468539054029e+002
1.81970085860998e+000	-3.51980496820524e+001,-2.18316488150050e+002
1.86208713666287e+000	-3.64783817242226e+001,-2.23268573555503e+002
1.90546071796325e+000	-3.78178125853276e+001,-2.28326605522659e+002
1.94984459975804e+000	-3.92190094603249e+001,-2.33492394023661e+002
1.99526231496888e+000	-4.06847541072224e+001,-2.38767745895133e+002
2.04173794466953e+000	-4.22179472081898e+001,-2.44154461734496e+002
2.08929613085404e+000	-4.38216128430906e+001,-2.49654332531919e+002
2.13796208950223e+000	-4.54989030651635e+001,-2.55269136020748e+002
2.18776162394955e+000	-4.72531025886682e+001,-2.61000632728616e+002
2.23872113856834e+000	-4.90876335671636e+001,-2.66850561710380e+002
2.29086765276777e+000	-5.10060604668166e+001,-2.72820635943355e+002
2.34422881531992e+000	-5.30120950285310e+001,-2.78912537364202e+002
2.39883291901949e+000	-5.51096013001571e+001,-2.85127911526055e+002
2.45470891568503e+000	-5.73026007427288e+001,-2.91468361853542e+002
2.51188643150958e+000	-5.95952773861196e+001,-2.97935443472643e+002
2.57039578276886e+000	-6.19919830317412e+001,-3.04530656591036e+002
2.63026799189538e+000	-6.44972424817398e+001,-3.11255439404120e+002
2.69153480392691e+000	-6.71157587753822e+001,-3.18111160501108e+002
2.75422870333816e+000	-6.98524184243875e+001,-3.25099110744353e+002
2.81838293126445e+000	-7.27122966108540e+001,-3.32220494594998e+002
2.88403150312660e+000	-7.57006623365995e+001,-3.39476420856918e+002
2.95120922666638e+000	-7.88229834908370e+001,-3.46867892810585e+002
3.01995172040201e+000	-8.20849318062669e+001,-3.54395797708133e+002
3.09029543251359e+000	-8.54923876763750e+001,-3.62060895600219e+002
3.16227766016837e+000	-8.90514447883261e+001,-3.69863807465945e+002
3.23593656929628e+000	-9.27684145406308e+001,-3.77805002615894e+002
3.31131121482591e+000	-9.66498301994076e+001,-3.85884785339884e+002
3.38844156139202e+000	-1.00702450737584e+002,-3.94103280770819e+002
3.46736850452531e+000	-1.04933264320004e+002,-4.02460419936170e+002
3.54813389233575e+000	-1.09349491360603e+002,-4.10955923971853e+002
3.63078054770101e+000	-1.13958587103673e+002,-4.19589287471579e+002
3.71535229097172e+000	-1.18768243652333e+002,-4.28359760949254e+002
3.80189396320560e+000	-1.23786391380410e+002,-4.37266332392924e+002
3.89045144994280e+000	-1.29021199638444e+002,-4.46307707891690e+002
3.98107170553496e+000	-1.34481076684249e+002,-4.55482291320071e+002
4.07380277804112e+000	-1.40174668736783e+002,-4.64788163069150e+002
4.16869383470335e+000	-1.46110858061978e+002,-4.74223057816800e+002
4.26579518801592e+000	-1.52298759987686e+002,-4.83784341336007e+002
4.36515832240165e+000	-1.58747718739358e+002,-4.93468986345192e+002
4.46683592150962e+000	-1.65467301983450e+002,-5.03273547411883e+002
4.57088189614874e+000	-1.72467293951424e+002,-5.13194134928771e+002
4.67735141287197e+000	-1.79757687024801e+002,-5.23226388189538e+002
4.78630092322637e+000	-1.87348671641370e+002,-5.33365447601933e+002
4.89778819368445e+000	-1.95250624386301e+002,-5.43605926086299e+002
5.01187233627271e+000	-2.03474094126020e+002,-5.53941879719421e+002
5.12861383991364e+000	-2.12029786026560e+002,-5.64366777697492e+002
5.24807460249771e+000	-2.20928543316753e+002,-5.74873471704974e+002
5.37031796370252e+000	-2.30181326628135e+002,-5.85454164793443e+002
5.49540873857623e+000	-2.39799190756809e+002,-5.96100379890481e+002
5.62341325190348e+000	-2.49793258690214e+002,-6.06802928076266e+002
5.75439937337156e+000	-2.60174692732629e+002,-6.17551876787531e+002
5.88843655355588e+000	-2.70954662579019e+002,-6.28336518125349e+002
6.02559586074356e+000	-2.82144310175923e+002,-6.39145337470002e+002
6.16595001861481e+000	-2.93754711228242e+002,-6.49965982624140e+002
6.30957344480192e+000	-3.05796833204276e+002,-6.60785233734735e+002
6.45654229034654e+000	-3.18281489717204e+002,-6.71588974263775e+002
6.60693448007594e+000	-3.31219291158919e+002,-6.82362163308960e+002
6.76082975391980e+000	-3.44620591492777e+002,-6.93088809596538e+002
6.91830970918935e+000	-3.58495431126545e+002,-7.03751947497648e+002
7.07945784384136e+000	-3.72853475800549e+002,-7.14333615444982e+002
7.24435960074988e+000	-3.87703951472636e+002,-7.24814837151349e+002
7.41310241300916e+000	-4.03055575197216e+002,-7.35175606056263e+002
7.58577575029182e+000	-4.18916482038968e+002,-7.45394873450171e+002
7.76247116628690e+000	-4.35294148095477e+002,-7.55450540746894e+002
7.94328234724279e+000	-4.52195309753354e+002,-7.65319456392168e+002
8.12830516164097e+000	-4.69625879353183e+002,-7.74977417912881e+002
8.31763771102669e+000	-4.87590857473292e+002,-7.84399179621659e+002
8.51138038202374e+000	-5.06094242128389e+002,-7.93558466497956e+002
8.70963589956078e+000	-5.25138935213861e+002,-8.02427994770021e+002
8.91250938133743e+000	-5.44726646598696e+002,-8.10979499714101e+002
9.12010839355907e+000	-5.64857796351930e+002,-8.19183771178149e+002
9.33254300796988e+000	-5.85531415627400e+002,-8.27010697316918e+002
9.54992586021433e+000	-6.06745046826050e+002,-8.34429316998269e+002
9.77237220955808e+000	-6.28494643726661e+002,-8.41407881302284e+002
9.99999999999997e+000	-6.50774472321770e+002,-8.47913924492101e+002
1.02329299228075e+001	-6.73577013200588e+002,-8.53914344775857e+002
1.04712854805090e+001	-6.96892866353558e+002,-8.59375495115519e+002
1.07151930523760e+001	-7.20710659366566e+002,-8.64263284260673e+002
1.09647819614318e+001	-7.45016959996760e+002,-8.68543288099401e+002
1.12201845430196e+001	-7.69796194202645e+002,-8.72180871320472e+002
1.14815362149688e+001	-7.95030570718298e+002,-8.75141319275104e+002
1.17489755493953e+001	-8.20700013301060e+002,-8.77389979811908e+002
1.20226443461741e+001	-8.46782101796955e+002,-8.78892414734430e+002
1.23026877081238e+001	-8.73252023176348e+002,-8.79614560401139e+002
1.25892541179416e+001	-9.00082533667625e+002,-8.79522896854834e+002
1.28824955169313e+001	-9.27243933111933e+002,-8.78584624726651e+002
1.31825673855640e+001	-9.54704052589324e+002,-8.76767849026336e+002
1.34896288259165e+001	-9.82428256328151e+002,-8.74041768787360e+002
1.38038426460288e+001	-1.01037945881382e+003,-8.70376871404347e+002
1.41253754462275e+001	-1.03851815791897e+003,-8.65745130371784e+002
1.44543977074592e+001	-1.06680248475976e+003,-8.60120205012639e+002
1.47910838816820e+001	-1.09518827084672e+003,-8.53477640678949e+002
1.51356124843620e+001	-1.12362913294866e+003,-8.45795067812990e+002
1.54881661891248e+001	-1.15207657592425e+003,-8.37052398178470e+002
1.58489319246111e+001	-1.18048011359997e+003,-8.27232016516946e+002
1.62181009735892e+001	-1.20878740758207e+003,-8.16318965842391e+002
1.65958690743755e+001	-1.23694442369976e+003,-8.04301124576418e+002
1.69824365246174e+001	-1.26489560557863e+003,-7.91169373731747e+002
1.73780082874937e+001	-1.29258406464739e+003,-7.76917752386739e+002
1.77827941003892e+001	-1.31995178567373e+003,-7.61543599749554e+002
1.81970085860998e+001	-1.34693984675397e+003,-7.45047682193852e+002
1.86208713666286e+001	-1.37348865248444e+003,-7.27434303749749e+002
1.90546071796324e+001	-1.39953817888092e+003,-7.08711398665913e+002
1.94984459975804e+001	-1.42502822846444e+003,-6.88890604798106e+002
1.99526231496887e+001	-1.44989869379135e+003,-6.67987316750423e+002
2.04173794466952e+001	-1.47408982759276e+003,-6.46020717873284e+002
2.08929613085403e+001	-1.49754251760353e+003,-6.23013790408176e+002
2.13796208950222e+001	-1.52019856408530e+003,-5.98993303279915e+002
2.18776162394954e+001	-1.54200095800934e+003,-5.73989777229591e+002
2.23872113856833e+001	-1.56289415784116e+003,-5.48037427200857e+002
2.29086765276776e+001	-1.58282436287584e+003,-5.21174082088812e+002
2.34422881531991e+001	-1.60173978110026e+003,-4.93441082168840e+002
2.39883291901948e+001	-1.61959088960456e+003,-4.64883154713714e+002
2.45470891568502e+001	-1.63633068562942e+003,-4.35548268494957e+002
2.51188643150957e+001	-1.65191492643492e+003,-4.05487468035219e+002
2.57039578276885e+001	-1.66630235625832e+003,-3.74754688643024e+002
2.63026799189537e+001	-1.67945491876326e+003,-3.43406553401993e+002
2.69153480392690e+001	-1.69133795348943e+003,-3.11502153421516e+002
2.75422870333815e+001	-1.70192037495721e+003,-2.79102812771896e+002
2.81838293126444e+001	-1.71117483321929e+003,-2.46271839621945e+002
2.88403150312659e+001	-1.71907785479936e+003,-2.13074265188353e+002
2.95120922666637e+001	-1.72560996308820e+003,-1.79576572175411e+002
3.01995172040200e+001	-1.73075577744493e+003,-1.45846414438295e+002
3.09029543251358e+001	-1.73450409038038e+003,-1.11952329650108e+002
3.16227766016837e+001	-1.73684792234838e+003,-7.79634467910152e+001
3.23593656929627e+001	-1.73778455383508e+003,-4.39491902892074e+001
3.31131121482590e+001	-1.73731553456685e+003,-9.97898266609138e+000
3.38844156139201e+001	-1.73544666981626e+003,2.38780524618971e+001
3.46736850452530e+001	-1.73218798392206e+003,5.75533851829929e+001
3.54813389233574e+001	-1.72755366129178e+003,9.09793700581309e+001
3.63078054770100e+001	-1.72156196529721e+003,1.24089531054126e+002
3.71535229097171e+001	-1.71423513561316e+003,1.56818838867121e+002
3.80189396320559e+001	-1.70559926470059e+003,1.89103978915027e+002
3.89045144994279e+001	-1.69568415426650e+003,2.20883608318957e+002
3.98107170553495e+001	-1.68452315268719e+003,2.52098600273434e+002
4.07380277804111e+001	-1.67215297450583e+003,2.82692274274195e+002
4.16869383470333e+001	-1.65861350325279e+003,3.12610610768125e+002
4.26579518801591e+001	-1.64394757897672e+003,3.41802448894823e+002
4.36515832240164e+001	-1.62820077197335e+003,3.70219666105055e+002
4.46683592150961e+001	-1.61142114434073e+003,3.97817338575034e+002
4.57088189614873e+001	-1.59365900106124e+003,4.24553881485236e+002
4.67735141287196e+001	-1.57496663242683e+003,4.50391168380351e+002
4.78630092322636e+001	-1.55539804968049e+003,4.75294629011550e+002
4.89778819368444e+001	-1.53500871580851e+003,4.99233325226468e+002
5.01187233627270e+001	-1.51385527345941e+003,5.22180004674275e+002
5.12861383991362e+001	-1.49199527198296e+003,5.44111132280586e+002
5.24807460249770e+001	-1.46948689556769e+003,5.65006899639553e+002
5.37031796370250e+001	-1.44638869444784e+003,5.84851212681229e+002
5.49540873857622e+001	-1.42275932108487e+003,6.03631658152017e+002
5.62341325190346e+001	-1.39865727316616e+003,6.21339449648858e+002
5.75439937337154e+001	-1.37414064516531e+003,6.37969354112708e+002
5.88843655355586e+001	-1.34926689010023e+003,6.53519599873742e+002
6.02559586074355e+001	-1.32409259298592e+003,6.67991767472030e+002
6.16595001861479e+001	-1.29867325733233e+003,6.81390664637183e+002
6.30957344480190e+001	-1.27306310587773e+003,6.93724186903659e+002
6.45654229034652e+001	-1.24731489656202e+003,7.05003165455016e+002
6.60693448007593e+001	-1.22147975457403e+003,7.15241203847376e+002
6.76082975391978e+001	-1.19560702110961e+003,7.24454505323366e+002
6.91830970918933e+001	-1.16974411928575e+003,7.32661692446825e+002
7.07945784384134e+001	-1.14393643747558e+003,7.39883620799816e+002
7.24435960074986e+001	-1.11822723013369e+003,7.46143188458751e+002
7.41310241300914e+001	-1.09265753600695e+003,7.51465142926333e+002
7.58577575029180e+001	-1.06726611346479e+003,7.55875887146031e+002
7.76247116628688e+001	-1.04208939251368e+003,7.59403286134424e+002
7.94328234724277e+001	-1.01716144292855e+003,7.62076475687012e+002
8.12830516164095e+001	-9.92513957806496e+002,7.63925674501020e+002
8.31763771102667e+001	-9.68176251731529e+002,7.64982000942248e+002
8.51138038202372e+001	-9.44175272653862e+002,7.65277295565802e+002
8.70963589956076e+001	-9.20535626506850e+002,7.64843950358969e+002
8.91250938133741e+001	-8.97279613529774e+002,7.63714745553414e+002
9.12010839355905e+001	-8.74427275223018e+002,7.61922694715345e+002
9.33254300796986e+001	-8.51996450836322e+002,7.59500898685924e+002
9.54992586021431e+001	-8.30002842285830e+002,7.56482408824983e+002
9.77237220955805e+001	-8.08460086396433e+002,7.52900099877692e+002
9.99999999999995e+001	-7.87379833386368e+002,7.48786552673189e+002
1.02329299228075e+002	-7.66771830543350e+002,7.44173946750157e+002
1.04712854805089e+002	-7.46644010073863e+002,7.39093962905894e+002
1.07151930523760e+002	-7.27002580165080e+002,7.33577695571355e+002
1.09647819614318e+002	-7.07852118343299e+002,7.27655574835227e+002
1.12201845430196e+002	-6.89195666283283e+002,7.21357297863413e+002
1.14815362149688e+002	-6.71034825279572e+002,7.14711769403254e+002
1.17489755493952e+002	-6.53369851660270e+002,7.07747051003847e+002
1.20226443461741e+002	-6.36199751494171e+002,7.00490318546887e+002
1.23026877081237e+002	-6.19522374006048e+002,6.92967827638756e+002
1.25892541179416e+002	-6.03334503187623e+002,6.85204886403576e+002
1.28824955169313e+002	-5.87631947153723e+002,6.77225835179527e+002
1.31825673855640e+002	-5.72409624861615e+002,6.69054032632129e+002
1.34896288259165e+002	-5.57661649866049e+002,6.60711847773449e+002
1.38038426460288e+002	-5.43381410849554e+002,6.52220657395868e+002
1.41253754462275e+002	-5.29561648711652e+002,6.43600848418942e+002
1.44543977074592e+002	-5.16194530059372e+002,6.34871824674723e+002
1.47910838816820e+002	-5.03271716981207e+002,6.26052017659335e+002
1.51356124843620e+002	-4.90784433033904e+002,6.17158900804272e+002
1.54881661891247e+002	-4.78723525403669e+002,6.08209006835720e+002
1.58489319246110e+002	-4.67079523242480e+002,5.99217947816307e+002
1.62181009735892e+002	-4.55842692206716e+002,5.90200437486436e+002
1.65958690743755e+002	-4.45003085251593e+002,5.81170315542123e+002
1.69824365246173e+002	-4.34550589758059e+002,5.72140573519295e+002
1.73780082874936e+002	-4.24474971086607e+002,5.63123381971740e+002
1.77827941003891e+002	-4.14765912669792e+002,5.54130118658171e+002
1.81970085860997e+002	-4.05413052765680e+002,5.45171397480435e+002
1.86208713666286e+002	-3.96406018006569e+002,5.36257097932831e+002
1.90546071796323e+002	-3.87734453883775e+002,5.27396394851198e+002
1.94984459975803e+002	-3.79388052315125e+002,5.18597788268746e+002
1.99526231496887e+002	-3.71356576445023e+002,5.09869133207983e+002
2.04173794466952e+002	-3.63629882829528e+002,5.01217669257122e+002
2.08929613085403e+002	-3.56197941157361e+002,4.92650049799332e+002
2.13796208950222e+002	-3.49050851659226e+002,4.84172370777768e+002
2.18776162394954e+002	-3.42178860352733e+002,4.75790198898818e+002
2.23872113856832e+002	-3.35572372270427e+002,4.67508599187033e+002
2.29086765276776e+002	-3.29221962810404e+002,4.59332161822924e+002
2.34422881531991e+002	-3.23118387349589e+002,4.51265028203463e+002
2.39883291901947e+002	-3.17252589249863e+002,4.43310916179064e+002
2.45470891568501e+002	-3.11615706384694e+002,4.35473144429680e+002
2.51188643150956e+002	-3.06199076307972e+002,4.27754655952605e+002
2.57039578276885e+002	-3.00994240179623e+002,4.20158040641838e+002
2.63026799189536e+002	-2.95992945558786e+002,4.12685556948019e+002
2.69153480392690e+002	-2.91187148166312e+002,4.05339152610799e+002
2.75422870333815e+002	-2.86569012716048e+002,3.98120484466490e+002
2.81838293126443e+002	-2.82130912905229e+002,3.91030937333458e+002
2.88403150312659e+002	-2.77865430650907e+002,3.84071641984826e+002
2.95120922666637e+002	-2.73765354652333e+002,3.77243492221947e+002
3.01995172040200e+002	-2.69823678354506e+002,3.70547161063465e+002
3.09029543251357e+002	-2.66033597382439e+002,3.63983116067843e+002
3.16227766016836e+002	-2.62388506511543e+002,3.57551633811171e+002
3.23593656929626e+002	-2.58881996234264e+002,3.51252813541232e+002
3.31131121482589e+002	-2.55507848977331e+002,3.45086590030981e+002
3.38844156139200e+002	-2.52260035023309e+002,3.39052745656173e+002
3.46736850452529e+002	-2.49132708181829e+002,3.33150921723043e+002
3.54813389233573e+002	-2.46120201255231e+002,3.27380629069404e+002
3.63078054770099e+002	-2.43217021338839e+002,3.21741257967837e+002
3.71535229097170e+002	-2.40417844992384e+002,3.16232087353697e+002
3.80189396320558e+002	-2.37717513317097e+002,3.10852293406607e+002
3.89045144994278e+002	-2.35111026969449e+002,3.05600957508668e+002
3.98107170553494e+002	-2.32593541139855e+002,3.00477073606182e+002
4.07380277804110e+002	-2.30160360523722e+002,2.95479554999041e+002
4.16869383470332e+002	-2.27806934307543e+002,2.90607240581704e+002
4.26579518801589e+002	-2.25528851194107e+002,2.85858900560746e+002
4.36515832240163e+002	-2.23321834485549e+002,2.81233241670964e+002
4.46683592150960e+002	-2.21181737244697e+002,2.76728911913886e+002
4.57088189614872e+002	-2.19104537551245e+002,2.72344504840081e+002
4.67735141287195e+002	-2.17086333869639e+002,2.68078563397348e+002
4.78630092322635e+002	-2.15123340543386e+002,2.63929583365431e+002
4.89778819368443e+002	-2.13211883430119e+002,2.59896016398405e+002
5.01187233627268e+002	-2.11348395691017e+002,2.55976272695165e+002
5.12861383991361e+002	-2.09529413746270e+002,2.52168723316481e+002
5.24807460249769e+002	-2.07751573408858e+002,2.48471702169911e+002
5.37031796370249e+002	-2.06011606208074e+002,2.44883507680503e+002
5.49540873857620e+002	-2.04306335912672e+002,2.41402404167311e+002
5.62341325190345e+002	-2.02632675264091e+002,2.38026622943896e+002
5.75439937337152e+002	-2.00987622929720e+002,2.34754363162160e+002
5.88843655355584e+002	-1.99368260684603e+002,2.31583792419140e+002
6.02559586074353e+002	-1.97771750830918e+002,2.28513047144566e+002
6.16595001861477e+002	-1.96195333863545e+002,2.25540232790494e+002
6.30957344480188e+002	-1.94636326388645e+002,2.22663423840826e+002
6.45654229034650e+002	-1.93092119303931e+002,2.19880663662878e+002
6.60693448007591e+002	-1.91560176245932e+002,2.17189964219653e+002
6.76082975391976e+002	-1.90038032311640e+002,2.14589305666489e+002
6.91830970918931e+002	-1.88523293058463e+002,2.12076635851425e+002
7.07945784384132e+002	-1.87013633788649e+002,2.09649869743949e+002
7.24435960074984e+002	-1.85506799120199e+002,2.07306888814327e+002
7.41310241300911e+002	-1.84000602847866e+002,2.05045540388192e+002
7.58577575029177e+002	-1.82492928094784e+002,2.02863637000569e+002
7.76247116628685e+002	-1.80981727755492e+002,2.00758955776082e+002
7.94328234724275e+002	-1.79465025227290e+002,1.98729237860491e+002
