Freq.	V(out)
1.00000000000000e+001	(-6.53568632577305e+000dB,1.62672094670574e+001°)
1.00230523807790e+001	(-6.53231899450845e+000dB,1.62961492591259e+001°)
1.00461579027840e+001	(-6.52893882757685e+000dB,1.63251184684992e+001°)
1.00693166885180e+001	(-6.52554578675202e+000dB,1.63541169251967e+001°)
1.00925288607668e+001	(-6.52213983366910e+000dB,1.63831444484244e+001°)
1.01157945425990e+001	(-6.51872092972008e+000dB,1.64122008655654e+001°)
1.01391138573668e+001	(-6.51528903594070e+000dB,1.64412860311230e+001°)
1.01624869287070e+001	(-6.51184411585138e+000dB,1.64703997458684e+001°)
1.01859138805412e+001	(-6.50838613108454e+000dB,1.64995418395689e+001°)
1.02093948370768e+001	(-6.50491503932544e+000dB,1.65287121190173e+001°)
1.02329299228075e+001	(-6.50143080589458e+000dB,1.65579104670543e+001°)
1.02565192625141e+001	(-6.49793339160319e+000dB,1.65871366418751e+001°)
1.02801629812647e+001	(-6.49442275770064e+000dB,1.66163904925708e+001°)
1.03038612044162e+001	(-6.49089886448805e+000dB,1.66456718270911e+001°)
1.03276140576140e+001	(-6.48736167642755e+000dB,1.66749804605287e+001°)
1.03514216667934e+001	(-6.48381115114454e+000dB,1.67043162176020e+001°)
1.03752841581801e+001	(-6.48024725227541e+000dB,1.67336789050664e+001°)
1.03992016582906e+001	(-6.47666994301837e+000dB,1.67630683422308e+001°)
1.04231742939330e+001	(-6.47307918046786e+000dB,1.67924843258831e+001°)
1.04472021922080e+001	(-6.46947492894648e+000dB,1.68219267042538e+001°)
1.04712854805090e+001	(-6.46585714759540e+000dB,1.68513952188198e+001°)
1.04954242865232e+001	(-6.46222579966386e+000dB,1.68808897472010e+001°)
1.05196187382322e+001	(-6.45858084708783e+000dB,1.69104100392380e+001°)
1.05438689639126e+001	(-6.45492224885280e+000dB,1.69399559287022e+001°)
1.05681750921366e+001	(-6.45124996650595e+000dB,1.69695271961370e+001°)
1.05925372517729e+001	(-6.44756396480591e+000dB,1.69991236657028e+001°)
1.06169555719872e+001	(-6.44386420111967e+000dB,1.70287451363060e+001°)
1.06414301822431e+001	(-6.44015063857032e+000dB,1.70583913791698e+001°)
1.06659612123026e+001	(-6.43642323519738e+000dB,1.70880622163768e+001°)
1.06905487922266e+001	(-6.43268195605442e+000dB,1.71177574306007e+001°)
1.07151930523761e+001	(-6.42892676357788e+000dB,1.71474768173991e+001°)
1.07398941234124e+001	(-6.42515761336902e+000dB,1.71772201671050e+001°)
1.07646521362983e+001	(-6.42137447060574e+000dB,1.72069872692630e+001°)
1.07894672222983e+001	(-6.41757729561538e+000dB,1.72367779122026e+001°)
1.08143395129794e+001	(-6.41376605149258e+000dB,1.72665918745803e+001°)
1.08392691402120e+001	(-6.40994069618914e+000dB,1.72964289712402e+001°)
1.08642562361706e+001	(-6.40610119285876e+000dB,1.73262889551780e+001°)
1.08893009333343e+001	(-6.40224750215320e+000dB,1.73561716209218e+001°)
1.09144033644875e+001	(-6.39837958415576e+000dB,1.73860767322972e+001°)
1.09395636627209e+001	(-6.39449740322367e+000dB,1.74160041036625e+001°)
1.09647819614318e+001	(-6.39060091779660e+000dB,1.74459534792446e+001°)
1.09900583943252e+001	(-6.38669008972637e+000dB,1.74759246567803e+001°)
1.10153930954141e+001	(-6.38276487920024e+000dB,1.75059173963318e+001°)
1.10407861990207e+001	(-6.37882524881677e+000dB,1.75359314714345e+001°)
1.10662378397766e+001	(-6.37487115964446e+000dB,1.75659666609863e+001°)
1.10917481526240e+001	(-6.37090257311171e+000dB,1.75960227246461e+001°)
1.11173172728159e+001	(-6.36691944961173e+000dB,1.76260994474096e+001°)
1.11429453359173e+001	(-6.36292175182750e+000dB,1.76561965848076e+001°)
1.11686324778056e+001	(-6.35890944195355e+000dB,1.76863138761788e+001°)
1.11943788346715e+001	(-6.35488247564894e+000dB,1.77164511410723e+001°)
1.12201845430196e+001	(-6.35084082043066e+000dB,1.77466080899928e+001°)
1.12460497396692e+001	(-6.34678443315354e+000dB,1.77767845097738e+001°)
1.12719745617551e+001	(-6.34271327813464e+000dB,1.78069801402388e+001°)
1.12979591467279e+001	(-6.33862731566054e+000dB,1.78371947638989e+001°)
1.13240036323555e+001	(-6.33452650655103e+000dB,1.78674281112935e+001°)
1.13501081567231e+001	(-6.33041081168927e+000dB,1.78976799452413e+001°)
1.13762728582343e+001	(-6.32628019580908e+000dB,1.79279500120399e+001°)
1.14024978756117e+001	(-6.32213461631078e+000dB,1.79582380651847e+001°)
1.14287833478977e+001	(-6.31797403577800e+000dB,1.79885438586438e+001°)
1.14551294144553e+001	(-6.31379841805016e+000dB,1.80188671244558e+001°)
1.14815362149688e+001	(-6.30960772140860e+000dB,1.80492076244181e+001°)
1.15080038894443e+001	(-6.30540190797342e+000dB,1.80795650896725e+001°)
1.15345325782109e+001	(-6.30118093989547e+000dB,1.81099392693511e+001°)
1.15611224219210e+001	(-6.29694477800338e+000dB,1.81403298851810e+001°)
1.15877735615512e+001	(-6.29269338532820e+000dB,1.81707366909436e+001°)
1.16144861384034e+001	(-6.28842672015579e+000dB,1.82011594245400e+001°)
1.16412602941049e+001	(-6.28414474937329e+000dB,1.82315978130484e+001°)
1.16680961706096e+001	(-6.27984742979577e+000dB,1.82620516033821e+001°)
1.16949939101987e+001	(-6.27553472702307e+000dB,1.82925204990912e+001°)
1.17219536554813e+001	(-6.27120659876826e+000dB,1.83230042517367e+001°)
1.17489755493953e+001	(-6.26686301025630e+000dB,1.83535025951244e+001°)
1.17760597352080e+001	(-6.26250392048959e+000dB,1.83840152345127e+001°)
1.18032063565173e+001	(-6.25812929236508e+000dB,1.84145418873419e+001°)
1.18304155572516e+001	(-6.25373908882018e+000dB,1.84450823172398e+001°)
1.18576874816716e+001	(-6.24933327127143e+000dB,1.84756361941679e+001°)
1.18850222743701e+001	(-6.24491179991505e+000dB,1.85062032738275e+001°)
1.19124200802737e+001	(-6.24047463944576e+000dB,1.85367832549423e+001°)
1.19398810446427e+001	(-6.23602174924651e+000dB,1.85673758612724e+001°)
1.19674053130724e+001	(-6.23155309321765e+000dB,1.85979808020115e+001°)
1.19949930314937e+001	(-6.22706863315330e+000dB,1.86285977901861e+001°)
1.20226443461741e+001	(-6.22256833087998e+000dB,1.86592265426250e+001°)
1.20503594037179e+001	(-6.21805214698428e+000dB,1.86898667489915e+001°)
1.20781383510678e+001	(-6.21352004975939e+000dB,1.87205181338215e+001°)
1.21059813355048e+001	(-6.20897199176291e+000dB,1.87511803999437e+001°)
1.21338885046497e+001	(-6.20440794605539e+000dB,1.87818532430816e+001°)
1.21618600064636e+001	(-6.19982786592660e+000dB,1.88125363610535e+001°)
1.21898959892486e+001	(-6.19523171769358e+000dB,1.88432294655810e+001°)
1.22179966016487e+001	(-6.19061946432401e+000dB,1.88739322412930e+001°)
1.22461619926504e+001	(-6.18599106839941e+000dB,1.89046443850868e+001°)
1.22743923115840e+001	(-6.18134649105693e+000dB,1.89353655990453e+001°)
1.23026877081238e+001	(-6.17668569817031e+000dB,1.89660955668644e+001°)
1.23310483322890e+001	(-6.17200864864237e+000dB,1.89968339884248e+001°)
1.23594743344450e+001	(-6.16731530655203e+000dB,1.90275805368809e+001°)
1.23879658653036e+001	(-6.16260563599486e+000dB,1.90583349172556e+001°)
1.24165230759240e+001	(-6.15787959904553e+000dB,1.90890967963901e+001°)
1.24451461177138e+001	(-6.15313715918342e+000dB,1.91198658667501e+001°)
1.24738351424294e+001	(-6.14837827752569e+000dB,1.91506418098584e+001°)
1.25025903021771e+001	(-6.14360291993381e+000dB,1.91814242890965e+001°)
1.25314117494141e+001	(-6.13881104931529e+000dB,1.92122130022607e+001°)
1.25602996369487e+001	(-6.13400262722003e+000dB,1.92430076104842e+001°)
1.25892541179416e+001	(-6.12917761669405e+000dB,1.92738078053766e+001°)
1.26182753459066e+001	(-6.12433598484676e+000dB,1.93046132263773e+001°)
1.26473634747114e+001	(-6.11947769134829e+000dB,1.93354235789066e+001°)
1.26765186585784e+001	(-6.11460270157199e+000dB,1.93662384920471e+001°)
1.27057410520853e+001	(-6.10971097870880e+000dB,1.93970576681747e+001°)
1.27350308101665e+001	(-6.10480248706950e+000dB,1.94278807601496e+001°)
1.27643880881134e+001	(-6.09987718914991e+000dB,1.94587074204486e+001°)
1.27938130415752e+001	(-6.09493505056269e+000dB,1.94895373078907e+001°)
1.28233058265601e+001	(-6.08997603315613e+000dB,1.95203701042661e+001°)
1.28528665994361e+001	(-6.08500010416178e+000dB,1.95512054286322e+001°)
1.28824955169313e+001	(-6.08000722582658e+000dB,1.95820429527135e+001°)
1.29121927361353e+001	(-6.07499736260385e+000dB,1.96128823385497e+001°)
1.29419584144998e+001	(-6.06997047856125e+000dB,1.96437232278761e+001°)
1.29717927098395e+001	(-6.06492654074620e+000dB,1.96745652778493e+001°)
1.30016957803328e+001	(-6.05986550904907e+000dB,1.97054081141614e+001°)
1.30316677845229e+001	(-6.05478734920505e+000dB,1.97362514031449e+001°)
1.30617088813183e+001	(-6.04969203030690e+000dB,1.97670947672517e+001°)
1.30918192299940e+001	(-6.04457951289909e+000dB,1.97979378821864e+001°)
1.31219989901920e+001	(-6.03944976387946e+000dB,1.98287803312553e+001°)
1.31522483219223e+001	(-6.03430274809396e+000dB,1.98596218125262e+001°)
1.31825673855640e+001	(-6.02913842835071e+000dB,1.98904619119899e+001°)
1.32129563418657e+001	(-6.02395677388619e+000dB,1.99213002902214e+001°)
1.32434153519466e+001	(-6.01875774649130e+000dB,1.99521365570201e+001°)
1.32739445772973e+001	(-6.01354131480965e+000dB,1.99829703884896e+001°)
1.33045441797808e+001	(-6.00830744186344e+000dB,2.00138013449837e+001°)
1.33352143216332e+001	(-6.00305609334421e+000dB,2.00446290848280e+001°)
1.33659551654643e+001	(-5.99778723867229e+000dB,2.00754532421689e+001°)
1.33967668742593e+001	(-5.99250084007848e+000dB,2.01062734286252e+001°)
1.34276496113785e+001	(-5.98719686388434e+000dB,2.01370892510083e+001°)
1.34586035405594e+001	(-5.98187527877895e+000dB,2.01679003487607e+001°)
1.34896288259164e+001	(-5.97653604707659e+000dB,2.01987062992086e+001°)
1.35207256319427e+001	(-5.97117913821840e+000dB,2.02295067651896e+001°)
1.35518941235103e+001	(-5.96580451730954e+000dB,2.02603013109027e+001°)
1.35831344658714e+001	(-5.96041215303555e+000dB,2.02910895867559e+001°)
1.36144468246594e+001	(-5.95500200928014e+000dB,2.03218711848168e+001°)
1.36458313658891e+001	(-5.94957405645221e+000dB,2.03526456801089e+001°)
1.36772882559584e+001	(-5.94412825969162e+000dB,2.03834127169729e+001°)
1.37088176616484e+001	(-5.93866458358247e+000dB,2.04141718871060e+001°)
1.37404197501251e+001	(-5.93318299846954e+000dB,2.04449227726179e+001°)
1.37720946889394e+001	(-5.92768347176885e+000dB,2.04756649891878e+001°)
1.38038426460287e+001	(-5.92216597167232e+000dB,2.05063981262026e+001°)
1.38356637897177e+001	(-5.91663046404217e+000dB,2.05371217713055e+001°)
1.38675582887188e+001	(-5.91107691683970e+000dB,2.05678355120595e+001°)
1.38995263121334e+001	(-5.90550530057948e+000dB,2.05985389462813e+001°)
1.39315680294529e+001	(-5.89991557933780e+000dB,2.06292316690782e+001°)
1.39636836105593e+001	(-5.89430772552465e+000dB,2.06599132451021e+001°)
1.39958732257261e+001	(-5.88868170368581e+000dB,2.06905832739715e+001°)
1.40281370456195e+001	(-5.88303748593512e+000dB,2.07212413322163e+001°)
1.40604752412990e+001	(-5.87737503774855e+000dB,2.07518869794052e+001°)
1.40928879842186e+001	(-5.87169433170336e+000dB,2.07825198332709e+001°)
1.41253754462274e+001	(-5.86599533391018e+000dB,2.08131394309807e+001°)
1.41579377995707e+001	(-5.86027801454400e+000dB,2.08437453603738e+001°)
1.41905752168908e+001	(-5.85454234308171e+000dB,2.08743371796386e+001°)
1.42232878712281e+001	(-5.84878828790164e+000dB,2.09049144847542e+001°)
1.42560759360218e+001	(-5.84301582056996e+000dB,2.09354768107442e+001°)
1.42889395851109e+001	(-5.83722490889882e+000dB,2.09660237465800e+001°)
1.43218789927353e+001	(-5.83141552629652e+000dB,2.09965548446413e+001°)
1.43548943335364e+001	(-5.82558764011678e+000dB,2.10270696553272e+001°)
1.43879857825583e+001	(-5.81974122008660e+000dB,2.10575677663564e+001°)
1.44211535152486e+001	(-5.81387623916003e+000dB,2.10880486866896e+001°)
1.44543977074592e+001	(-5.80799266589775e+000dB,2.11185120138463e+001°)
1.44877185354475e+001	(-5.80209047124609e+000dB,2.11489572872402e+001°)
1.45211161758773e+001	(-5.79616962915210e+000dB,2.11793840489659e+001°)
1.45545908058195e+001	(-5.79023010857966e+000dB,2.12097918508070e+001°)
1.45881426027534e+001	(-5.78427188009148e+000dB,2.12401802300231e+001°)
1.46217717445671e+001	(-5.77829491675998e+000dB,2.12705487525572e+001°)
1.46554784095590e+001	(-5.77229918832973e+000dB,2.13008969482793e+001°)
1.46892627764385e+001	(-5.76628466950316e+000dB,2.13312243457764e+001°)
1.47231250243271e+001	(-5.76025133336811e+000dB,2.13615304963934e+001°)
1.47570653327588e+001	(-5.75419914716036e+000dB,2.13918149180145e+001°)
1.47910838816819e+001	(-5.74812808800225e+000dB,2.14220771716353e+001°)
1.48251808514594e+001	(-5.74203812607836e+000dB,2.14523167684808e+001°)
1.48593564228699e+001	(-5.73592923615332e+000dB,2.14825332538693e+001°)
1.48936107771090e+001	(-5.72980139064179e+000dB,2.15127261216165e+001°)
1.49279440957898e+001	(-5.72365456189470e+000dB,2.15428949373764e+001°)
1.49623565609442e+001	(-5.71748872369405e+000dB,2.15730391979732e+001°)
1.49968483550236e+001	(-5.71130385088941e+000dB,2.16031584298748e+001°)
1.50314196609001e+001	(-5.70509991670448e+000dB,2.16332521596184e+001°)
1.50660706618673e+001	(-5.69887689568272e+000dB,2.16633198989168e+001°)
1.51008015416413e+001	(-5.69263476151418e+000dB,2.16933611525782e+001°)
1.51356124843619e+001	(-5.68637348918064e+000dB,2.17233754511084e+001°)
1.51705036745932e+001	(-5.68009305379327e+000dB,2.17533622846783e+001°)
1.52054752973248e+001	(-5.67379342993436e+000dB,2.17833211824293e+001°)
1.52405275379728e+001	(-5.66747459256008e+000dB,2.18132516293659e+001°)
1.52756605823806e+001	(-5.66113651738675e+000dB,2.18431531393516e+001°)
1.53108746168202e+001	(-5.65477917934784e+000dB,2.18730252240714e+001°)
1.53461698279928e+001	(-5.64840255623278e+000dB,2.19028673667241e+001°)
1.53815464030302e+001	(-5.64200662148141e+000dB,2.19326790793845e+001°)
1.54170045294954e+001	(-5.63559135420743e+000dB,2.19624598441685e+001°)
1.54525443953840e+001	(-5.62915672900279e+000dB,2.19922091581435e+001°)
1.54881661891247e+001	(-5.62270272372815e+000dB,2.20219265224934e+001°)
1.55238700995807e+001	(-5.61622931460358e+000dB,2.20516114116705e+001°)
1.55596563160506e+001	(-5.60973647994192e+000dB,2.20812633236042e+001°)
1.55955250282694e+001	(-5.60322419613315e+000dB,2.21108817287834e+001°)
1.56314764264094e+001	(-5.59669244147694e+000dB,2.21404661296441e+001°)
1.56675107010813e+001	(-5.59014119246913e+000dB,2.21700160104429e+001°)
1.57036280433354e+001	(-5.58357043029386e+000dB,2.21995308144753e+001°)
1.57398286446620e+001	(-5.57698013143060e+000dB,2.22290100529433e+001°)
1.57761126969933e+001	(-5.57037027506565e+000dB,2.22584531952815e+001°)
1.58124803927037e+001	(-5.56374084081500e+000dB,2.22878596899613e+001°)
1.58489319246110e+001	(-5.55709180621879e+000dB,2.23172290379661e+001°)
1.58854674859776e+001	(-5.55042315234572e+000dB,2.23465606964602e+001°)
1.59220872705115e+001	(-5.54373485907257e+000dB,2.23758541062989e+001°)
1.59587914723672e+001	(-5.53702690550810e+000dB,2.24051087776467e+001°)
1.59955802861465e+001	(-5.53029927143624e+000dB,2.24343241470840e+001°)
1.60324539069002e+001	(-5.52355193784366e+000dB,2.24634996725063e+001°)
1.60694125301286e+001	(-5.51678488727997e+000dB,2.24926348163357e+001°)
1.61064563517825e+001	(-5.50999810043831e+000dB,2.25217290140896e+001°)
1.61435855682647e+001	(-5.50319155564011e+000dB,2.25507817527912e+001°)
1.61808003764305e+001	(-5.49636523718468e+000dB,2.25797924695079e+001°)
1.62181009735891e+001	(-5.48951912610841e+000dB,2.26087605972652e+001°)
1.62554875575047e+001	(-5.48265320503070e+000dB,2.26376856269007e+001°)
1.62929603263970e+001	(-5.47576745566891e+000dB,2.26665669542230e+001°)
1.63305194789432e+001	(-5.46886186222869e+000dB,2.26954040398273e+001°)
1.63681652142779e+001	(-5.46193640632733e+000dB,2.27241963243760e+001°)
1.64058977319952e+001	(-5.45499107147766e+000dB,2.27529432585848e+001°)
1.64437172321491e+001	(-5.44802584222667e+000dB,2.27816442744155e+001°)
1.64816239152549e+001	(-5.44104070150147e+000dB,2.28102987954852e+001°)
1.65196179822900e+001	(-5.43403563407630e+000dB,2.28389062510406e+001°)
1.65576996346951e+001	(-5.42701062338654e+000dB,2.28674660892094e+001°)
1.65958690743754e+001	(-5.41996565590613e+000dB,2.28959777186281e+001°)
1.66341265037015e+001	(-5.41290071567127e+000dB,2.29244405946269e+001°)
1.66724721255104e+001	(-5.40581578811771e+000dB,2.29528541066141e+001°)
1.67109061431069e+001	(-5.39871085899039e+000dB,2.29812176895111e+001°)
1.67494287602642e+001	(-5.39158591460280e+000dB,2.30095307672836e+001°)
1.67880401812254e+001	(-5.38444094084195e+000dB,2.30377927633906e+001°)
1.68267406107045e+001	(-5.37727592468986e+000dB,2.30660030874963e+001°)
1.68655302538872e+001	(-5.37009085294591e+000dB,2.30941611451292e+001°)
1.69044093164324e+001	(-5.36288571320113e+000dB,2.31222663535697e+001°)
1.69433780044731e+001	(-5.35566049210387e+000dB,2.31503181326080e+001°)
1.69824365246172e+001	(-5.34841517871001e+000dB,2.31783158526962e+001°)
1.70215850839493e+001	(-5.34114976032974e+000dB,2.32062589764977e+001°)
1.70608238900310e+001	(-5.33386422585938e+000dB,2.32341468582556e+001°)
1.71001531509027e+001	(-5.32655856468039e+000dB,2.32619789200849e+001°)
1.71395730750841e+001	(-5.31923276614931e+000dB,2.32897545674481e+001°)
1.71790838715757e+001	(-5.31188681789015e+000dB,2.33174731800313e+001°)
1.72186857498599e+001	(-5.30452071234508e+000dB,2.33451341434147e+001°)
1.72583789199018e+001	(-5.29713443786665e+000dB,2.33727368892659e+001°)
1.72981635921508e+001	(-5.28972798662550e+000dB,2.34002807739316e+001°)
1.73380399775412e+001	(-5.28230134838222e+000dB,2.34277652046149e+001°)
1.73780082874935e+001	(-5.27485451460483e+000dB,2.34551895509161e+001°)
1.74180687339159e+001	(-5.26738747613973e+000dB,2.34825532209039e+001°)
1.74582215292048e+001	(-5.25990022712929e+000dB,2.35098555810184e+001°)
1.74984668862464e+001	(-5.25239275737373e+000dB,2.35370960125631e+001°)
1.75388050184174e+001	(-5.24486506141799e+000dB,2.35642738985428e+001°)
1.75792361395867e+001	(-5.23731713162578e+000dB,2.35913886039592e+001°)
1.76197604641161e+001	(-5.22974896141090e+000dB,2.36184395067436e+001°)
1.76603782068614e+001	(-5.22216054467764e+000dB,2.36454259961523e+001°)
1.77010895831740e+001	(-5.21455187525857e+000dB,2.36723474365545e+001°)
1.77418948089014e+001	(-5.20692294802479e+000dB,2.36992031707286e+001°)
1.77827941003890e+001	(-5.19927375731250e+000dB,2.37259925931587e+001°)
1.78237876744807e+001	(-5.19160429835225e+000dB,2.37527150590689e+001°)
1.78648757485203e+001	(-5.18391456782419e+000dB,2.37793699206975e+001°)
1.79060585403527e+001	(-5.17620456052756e+000dB,2.38059565478838e+001°)
1.79473362683250e+001	(-5.16847427376889e+000dB,2.38324743062488e+001°)
1.79887091512877e+001	(-5.16072370428180e+000dB,2.38589225397510e+001°)
1.80301774085955e+001	(-5.15295284771090e+000dB,2.38853006079622e+001°)
1.80717412601090e+001	(-5.14516170316627e+000dB,2.39116078519890e+001°)
1.81134009261958e+001	(-5.13735026827634e+000dB,2.39378436489423e+001°)
1.81551566277311e+001	(-5.12951854142095e+000dB,2.39640073153207e+001°)
1.81970085860996e+001	(-5.12166652137758e+000dB,2.39900982048519e+001°)
1.82389570231961e+001	(-5.11379420627765e+000dB,2.40161156753457e+001°)
1.82810021614272e+001	(-5.10590159685947e+000dB,2.40420590596700e+001°)
1.83231442237119e+001	(-5.09798869216239e+000dB,2.40679276960957e+001°)
1.83653834334832e+001	(-5.09005549401299e+000dB,2.40937209243163e+001°)
1.84077200146893e+001	(-5.08210200223663e+000dB,2.41194380842861e+001°)
1.84501541917945e+001	(-5.07412821749052e+000dB,2.41450785031717e+001°)
1.84926861897805e+001	(-5.06613414143744e+000dB,2.41706415215532e+001°)
1.85353162341479e+001	(-5.05811977653770e+000dB,2.41961264629667e+001°)
1.85780445509167e+001	(-5.05008512565431e+000dB,2.42215326541461e+001°)
1.86208713666284e+001	(-5.04203019103111e+000dB,2.42468594305375e+001°)
1.86637969083464e+001	(-5.03395497637871e+000dB,2.42721060913953e+001°)
1.87068214036578e+001	(-5.02585948514683e+000dB,2.42972720011359e+001°)
