Freq.	V(out)
1.00000000000000e+000	-3.86300507592392e+000,-2.53262615177942e-001
1.02329299228075e+000	-3.86356268276179e+000,-2.47521278465445e-001
1.04712854805090e+000	-3.86409527589664e+000,-2.41909051504558e-001
1.07151930523761e+000	-3.86460397384290e+000,-2.36423100351931e-001
1.09647819614318e+000	-3.86508984538015e+000,-2.31060648567122e-001
1.12201845430196e+000	-3.86555391185139e+000,-2.25818976440385e-001
1.14815362149688e+000	-3.86599714916059e+000,-2.20695420047791e-001
1.17489755493953e+000	-3.86642048974310e+000,-2.15687370449902e-001
1.20226443461741e+000	-3.86682482448381e+000,-2.10792272788797e-001
1.23026877081238e+000	-3.86721100462881e+000,-2.06007625430180e-001
1.25892541179417e+000	-3.86757984341524e+000,-2.01330979053211e-001
1.28824955169313e+000	-3.86793211789335e+000,-1.96759935764477e-001
1.31825673855641e+000	-3.86826857040555e+000,-1.92292148216399e-001
1.34896288259165e+000	-3.86858991007885e+000,-1.87925318768622e-001
1.38038426460288e+000	-3.86889681456075e+000,-1.83657198563573e-001
1.41253754462275e+000	-3.86918993106201e+000,-1.79485586603071e-001
1.44543977074593e+000	-3.86946987795303e+000,-1.75408329012684e-001
1.47910838816821e+000	-3.86973724600715e+000,-1.71423318013091e-001
1.51356124843621e+000	-3.86999259951136e+000,-1.67528491188704e-001
1.54881661891248e+000	-3.87023647753432e+000,-1.63721830548639e-001
1.58489319246111e+000	-3.87046939502333e+000,-1.60001361715059e-001
1.62181009735893e+000	-3.87069184389818e+000,-1.56365153096961e-001
1.65958690743756e+000	-3.87090429407314e+000,-1.52811315025620e-001
1.69824365246174e+000	-3.87110719436938e+000,-1.49337998982634e-001
1.73780082874937e+000	-3.87130097361165e+000,-1.45943396730171e-001
1.77827941003892e+000	-3.87148604130147e+000,-1.42625739568340e-001
1.81970085860998e+000	-3.87166278867928e+000,-1.39383297494483e-001
1.86208713666287e+000	-3.87183158940588e+000,-1.36214378470468e-001
1.90546071796325e+000	-3.87199280043447e+000,-1.33117327612721e-001
1.94984459975804e+000	-3.87214676264142e+000,-1.30090526458037e-001
1.99526231496888e+000	-3.87229380171132e+000,-1.27132392236479e-001
2.04173794466953e+000	-3.87243422864845e+000,-1.24241377104350e-001
2.08929613085404e+000	-3.87256834060105e+000,-1.21415967406226e-001
2.13796208950223e+000	-3.87269642127887e+000,-1.18654683037233e-001
2.18776162394955e+000	-3.87281874174190e+000,-1.15956076652092e-001
2.23872113856834e+000	-3.87293556082097e+000,-1.13318733054652e-001
2.29086765276777e+000	-3.87304712581466e+000,-1.10741268470489e-001
2.34422881531992e+000	-3.87315367286091e+000,-1.08222329909463e-001
2.39883291901949e+000	-3.87325542754576e+000,-1.05760594498768e-001
2.45470891568503e+000	-3.87335260523151e+000,-1.03354768856698e-001
2.51188643150958e+000	-3.87344541171554e+000,-1.01003588444852e-001
2.57039578276886e+000	-3.87353404346965e+000,-9.87058169666737e-002
2.63026799189538e+000	-3.87361868826814e+000,-9.64602457570045e-002
2.69153480392691e+000	-3.87369952529312e+000,-9.42656931883641e-002
2.75422870333816e+000	-3.87377672579401e+000,-9.21210040618800e-002
2.81838293126445e+000	-3.87385045328917e+000,-9.00250490792648e-002
2.88403150312660e+000	-3.87392086394676e+000,-8.79767242497423e-002
2.95120922666638e+000	-3.87398810692368e+000,-8.59749503589017e-002
3.01995172040201e+000	-3.87405232466041e+000,-8.40186724050153e-002
3.09029543251359e+000	-3.87411365321878e+000,-8.21068590906573e-002
3.16227766016837e+000	-3.87417222251013e+000,-8.02385022879248e-002
3.23593656929628e+000	-3.87422815667496e+000,-7.84126165678243e-002
3.31131121482591e+000	-3.87428157423579e+000,-7.66282386434761e-002
3.38844156139202e+000	-3.87433258835051e+000,-7.48844269214221e-002
3.46736850452531e+000	-3.87438130712887e+000,-7.31802610305524e-002
3.54813389233575e+000	-3.87442783384674e+000,-7.15148413220500e-002
3.63078054770101e+000	-3.87447226708088e+000,-6.98872884368392e-002
3.71535229097172e+000	-3.87451470105270e+000,-6.82967428516313e-002
3.80189396320560e+000	-3.87455522563973e+000,-6.67423644288120e-002
3.89045144994280e+000	-3.87459392675833e+000,-6.52233319967324e-002
3.98107170553496e+000	-3.87463088641532e+000,-6.37388429276253e-002
4.07380277804112e+000	-3.87466618299708e+000,-6.22881127202942e-002
4.16869383470335e+000	-3.87469989128382e+000,-6.08703746057836e-002
4.26579518801592e+000	-3.87473208275559e+000,-5.94848791371127e-002
4.36515832240165e+000	-3.87476282563736e+000,-5.81308938286205e-002
4.46683592150962e+000	-3.87479218513444e+000,-5.68077027341196e-002
4.57088189614874e+000	-3.87482022344427e+000,-5.55146061254687e-002
4.67735141287197e+000	-3.87484700003603e+000,-5.42509201027411e-002
4.78630092322637e+000	-3.87487257168108e+000,-5.30159762440844e-002
4.89778819368445e+000	-3.87489699258487e+000,-5.18091212585726e-002
5.01187233627271e+000	-3.87492031452179e+000,-5.06297166488114e-002
5.12861383991364e+000	-3.87494258693680e+000,-4.94771383859746e-002
5.24807460249771e+000	-3.87496385708916e+000,-4.83507765693546e-002
5.37031796370252e+000	-3.87498417001180e+000,-4.72500351177003e-002
5.49540873857623e+000	-3.87500356880705e+000,-4.61743314668272e-002
5.62341325190348e+000	-3.87502209463471e+000,-4.51230962457564e-002
5.75439937337156e+000	-3.87503978676182e+000,-4.40957730072364e-002
5.88843655355588e+000	-3.87505668266627e+000,-4.30918178985881e-002
6.02559586074356e+000	-3.87507281823174e+000,-4.21106994217234e-002
6.16595001861481e+000	-3.87508822763332e+000,-4.11518981188483e-002
6.30957344480192e+000	-3.87510294359256e+000,-4.02149063209503e-002
6.45654229034654e+000	-3.87511699723749e+000,-3.92992278751902e-002
6.60693448007594e+000	-3.87513041843690e+000,-3.84043778850919e-002
6.76082975391980e+000	-3.87514323563547e+000,-3.75298824609634e-002
6.91830970918935e+000	-3.87515547598094e+000,-3.66752784613845e-002
7.07945784384136e+000	-3.87516716548746e+000,-3.58401132565852e-002
7.24435960074988e+000	-3.87517832890181e+000,-3.50239444950396e-002
7.41310241300916e+000	-3.87518898990719e+000,-3.42263398656674e-002
7.58577575029182e+000	-3.87519917113726e+000,-3.34468768704365e-002
7.76247116628690e+000	-3.87520889414863e+000,-3.26851425994261e-002
7.94328234724279e+000	-3.87521817957967e+000,-3.19407335243868e-002
8.12830516164097e+000	-3.87522704713998e+000,-3.12132552767245e-002
8.31763771102669e+000	-3.87523551557434e+000,-3.05023224445237e-002
8.51138038202374e+000	-3.87524360292424e+000,-2.98075583624848e-002
8.70963589956078e+000	-3.87525132626933e+000,-2.91285949243340e-002
8.91250938133743e+000	-3.87525870206046e+000,-2.84650723864466e-002
9.12010839355907e+000	-3.87526574586851e+000,-2.78166391679687e-002
9.33254300796988e+000	-3.87527247267594e+000,-2.71829516809438e-002
9.54992586021433e+000	-3.87527889672751e+000,-2.65636741325717e-002
9.77237220955808e+000	-3.87528503167474e+000,-2.59584783646072e-002
9.99999999999997e+000	-3.87529089051976e+000,-2.53670436708125e-002
1.02329299228075e+001	-3.87529648567217e+000,-2.47890566284112e-002
1.04712854805090e+001	-3.87530182901334e+000,-2.42242109310010e-002
1.07151930523760e+001	-3.87530693186514e+000,-2.36722072351651e-002
1.09647819614318e+001	-3.87531180506145e+000,-2.31327529949793e-002
1.12201845430196e+001	-3.87531645892359e+000,-2.26055623070299e-002
1.14815362149688e+001	-3.87532090336980e+000,-2.20903557650760e-002
1.17489755493953e+001	-3.87532514774317e+000,-2.15868603089903e-002
1.20226443461741e+001	-3.87532920111123e+000,-2.10948090780885e-002
1.23026877081238e+001	-3.87533307205408e+000,-2.06139412740803e-002
1.25892541179416e+001	-3.87533676877964e+000,-2.01440020254426e-002
1.28824955169313e+001	-3.87534029913099e+000,-1.96847422437358e-002
1.31825673855640e+001	-3.87534367057495e+000,-1.92359185008115e-002
1.34896288259165e+001	-3.87534689032302e+000,-1.87972928975773e-002
1.38038426460288e+001	-3.87534996512770e+000,-1.83686329329912e-002
1.41253754462275e+001	-3.87535290155360e+000,-1.79497113897676e-002
1.44543977074592e+001	-3.87535570579198e+000,-1.75403062065067e-002
1.47910838816820e+001	-3.87535838384673e+000,-1.71402003681632e-002
1.51356124843620e+001	-3.87536094140184e+000,-1.67491817829425e-002
1.54881661891248e+001	-3.87536338380624e+000,-1.63670431744369e-002
1.58489319246111e+001	-3.87536571628646e+000,-1.59935819709991e-002
1.62181009735892e+001	-3.87536794380350e+000,-1.56286002020704e-002
1.65958690743755e+001	-3.87537007107448e+000,-1.52719043854261e-002
1.69824365246174e+001	-3.87537210257211e+000,-1.49233054348053e-002
1.73780082874937e+001	-3.87537404267871e+000,-1.45826185487020e-002
1.77827941003892e+001	-3.87537589544572e+000,-1.42496631239346e-002
1.81970085860998e+001	-3.87537766482352e+000,-1.39242626513996e-002
1.86208713666286e+001	-3.87537935458364e+000,-1.36062446269684e-002
1.90546071796324e+001	-3.87538096826856e+000,-1.32954404583512e-002
1.94984459975804e+001	-3.87538250933464e+000,-1.29916853770471e-002
1.99526231496887e+001	-3.87538398103399e+000,-1.26948183496996e-002
2.04173794466952e+001	-3.87538538652719e+000,-1.24046819951382e-002
2.08929613085403e+001	-3.87538672872780e+000,-1.21211224979857e-002
2.13796208950222e+001	-3.87538801052745e+000,-1.18439895292431e-002
2.18776162394954e+001	-3.87538923464114e+000,-1.15731361656432e-002
2.23872113856833e+001	-3.87539040365957e+000,-1.13084188130131e-002
2.29086765276776e+001	-3.87539152005462e+000,-1.10496971295172e-002
2.34422881531991e+001	-3.87539258624375e+000,-1.07968339516241e-002
2.39883291901948e+001	-3.87539360440106e+000,-1.05496952195203e-002
2.45470891568502e+001	-3.87539457673334e+000,-1.03081499095871e-002
2.51188643150957e+001	-3.87539550532830e+000,-1.00720699624824e-002
2.57039578276885e+001	-3.87539639209407e+000,-9.84133021466709e-003
2.63026799189537e+001	-3.87539723897350e+000,-9.61580833619319e-003
2.69153480392690e+001	-3.87539804772815e+000,-9.39538476035424e-003
2.75422870333815e+001	-3.87539882010457e+000,-9.17994262479599e-003
2.81838293126444e+001	-3.87539955769404e+000,-8.96936770615862e-003
2.88403150312659e+001	-3.87540026208121e+000,-8.76354836283004e-003
2.95120922666637e+001	-3.87540093478824e+000,-8.56237547302849e-003
3.01995172040200e+001	-3.87540157720265e+000,-8.36574237938733e-003
3.09029543251358e+001	-3.87540219070353e+000,-8.17354482943657e-003
3.16227766016837e+001	-3.87540277660921e+000,-7.98568092382362e-003
3.23593656929627e+001	-3.87540333609180e+000,-7.80205105852382e-003
3.31131121482590e+001	-3.87540387045771e+000,-7.62255787742208e-003
3.38844156139201e+001	-3.87540438071139e+000,-7.44710621345687e-003
3.46736850452530e+001	-3.87540486803489e+000,-7.27560304572437e-003
3.54813389233574e+001	-3.87540533341698e+000,-7.10795744364867e-003
3.63078054770100e+001	-3.87540577785746e+000,-6.94408052317938e-003
3.71535229097171e+001	-3.87540620230160e+000,-6.78388539851083e-003
3.80189396320559e+001	-3.87540660761247e+000,-6.62728713477192e-003
3.89045144994279e+001	-3.87540699468967e+000,-6.47420270482401e-003
3.98107170553495e+001	-3.87540736436422e+000,-6.32455094396922e-003
4.07380277804111e+001	-3.87540771737297e+000,-6.17825250747195e-003
4.16869383470333e+001	-3.87540805449329e+000,-6.03522982845543e-003
4.26579518801591e+001	-3.87540837644875e+000,-5.89540707627108e-003
4.36515832240164e+001	-3.87540868392145e+000,-5.75871011711004e-003
4.46683592150961e+001	-3.87540897753351e+000,-5.62506647531885e-003
4.57088189614873e+001	-3.87540925792517e+000,-5.49440529208117e-003
4.67735141287196e+001	-3.87540952572710e+000,-5.36665729158402e-003
4.78630092322636e+001	-3.87540978143818e+000,-5.24175474143924e-003
4.89778819368444e+001	-3.87541002565527e+000,-5.11963141786434e-003
5.01187233627270e+001	-3.87541025886429e+000,-5.00022257097348e-003
5.12861383991362e+001	-3.87541048157631e+000,-4.88346489038147e-003
5.24807460249770e+001	-3.87541069426928e+000,-4.76929647072611e-003
5.37031796370250e+001	-3.87541089735232e+000,-4.65765677884691e-003
5.49540873857622e+001	-3.87541109134765e+000,-4.54848662373070e-003
5.62341325190346e+001	-3.87541127657606e+000,-4.44172812265185e-003
5.75439937337154e+001	-3.87541145346434e+000,-4.33732467162413e-003
5.88843655355586e+001	-3.87541162239227e+000,-4.23522091553321e-003
6.02559586074355e+001	-3.87541178372239e+000,-4.13536271857194e-003
6.16595001861479e+001	-3.87541193776349e+000,-4.03769713469595e-003
6.30957344480190e+001	-3.87541208487453e+000,-3.94217238202211e-003
6.45654229034652e+001	-3.87541222537201e+000,-3.84873781201403e-003
6.60693448007593e+001	-3.87541235951877e+000,-3.75734388524194e-003
6.76082975391978e+001	-3.87541248764191e+000,-3.66794214418611e-003
6.91830970918933e+001	-3.87541260998723e+000,-3.58048518666149e-003
7.07945784384134e+001	-3.87541272682758e+000,-3.49492664317847e-003
7.24435960074986e+001	-3.87541283838482e+000,-3.41122114960288e-003
7.41310241300914e+001	-3.87541294492739e+000,-3.32932432483272e-003
7.58577575029180e+001	-3.87541304666504e+000,-3.24919274569678e-003
7.76247116628688e+001	-3.87541314380658e+000,-3.17078392675331e-003
7.94328234724277e+001	-3.87541323657978e+000,-3.09405629452910e-003
8.12830516164095e+001	-3.87541332515548e+000,-3.01896916716085e-003
8.31763771102667e+001	-3.87541340973297e+000,-2.94548273284001e-003
8.51138038202372e+001	-3.87541349051340e+000,-2.87355802854691e-003
8.70963589956076e+001	-3.87541356765132e+000,-2.80315691933938e-003
8.91250938133741e+001	-3.87541364130223e+000,-2.73424207729381e-003
9.12010839355905e+001	-3.87541371160569e+000,-2.66677696353076e-003
9.33254300796986e+001	-3.87541377876034e+000,-2.60072580679126e-003
9.54992586021431e+001	-3.87541384286229e+000,-2.53605358702027e-003
9.77237220955805e+001	-3.87541390408836e+000,-2.47272601329056e-003
9.99999999999995e+001	-3.87541396252105e+000,-2.41070950959276e-003
1.02329299228075e+002	-3.87541401835374e+000,-2.34997119337204e-003
1.04712854805089e+002	-3.87541407160070e+000,-2.29047886149571e-003
1.07151930523760e+002	-3.87541412246243e+000,-2.23220096893116e-003
1.09647819614318e+002	-3.87541417101940e+000,-2.17510661737745e-003
1.12201845430196e+002	-3.87541421738572e+000,-2.11916553440158e-003
1.14815362149688e+002	-3.87541426164191e+000,-2.06434805916209e-003
1.17489755493952e+002	-3.87541430390173e+000,-2.01062512791754e-003
1.20226443461741e+002	-3.87541434421767e+000,-1.95796825438239e-003
1.23026877081237e+002	-3.87541438269598e+000,-1.90634952081134e-003
1.25892541179416e+002	-3.87541441943794e+000,-1.85574155757840e-003
1.28824955169313e+002	-3.87541445449428e+000,-1.80611753131944e-003
1.31825673855640e+002	-3.87541448797800e+000,-1.75745113229749e-003
1.34896288259165e+002	-3.87541451989427e+000,-1.70971655604494e-003
1.38038426460288e+002	-3.87541455037895e+000,-1.66288849291128e-003
1.41253754462275e+002	-3.87541457944897e+000,-1.61694211466278e-003
1.44543977074592e+002	-3.87541460718671e+000,-1.57185305898732e-003
1.47910838816820e+002	-3.87541463364149e+000,-1.52759742023084e-003
1.51356124843620e+002	-3.87541465889932e+000,-1.48415173395454e-003
1.54881661891247e+002	-3.87541468296618e+000,-1.44149296288099e-003
1.58489319246110e+002	-3.87541470594203e+000,-1.39959849010565e-003
1.62181009735892e+002	-3.87541472782825e+000,-1.35844610242693e-003
1.65958690743755e+002	-3.87541474870044e+000,-1.31801398074041e-003
1.69824365246173e+002	-3.87541476859408e+000,-1.27828068639930e-003
1.73780082874936e+002	-3.87541478756141e+000,-1.23922515324802e-003
1.77827941003891e+002	-3.87541480563322e+000,-1.20082667330088e-003
1.81970085860997e+002	-3.87541482284903e+000,-1.16306488677377e-003
1.86208713666286e+002	-3.87541483923575e+000,-1.12591977227836e-003
1.90546071796323e+002	-3.87541485485744e+000,-1.08937163559498e-003
1.94984459975803e+002	-3.87541486970940e+000,-1.05340109750530e-003
1.99526231496887e+002	-3.87541488385228e+000,-1.01798908683692e-003
2.04173794466952e+002	-3.87541489730665e+000,-9.83116826273522e-004
2.08929613085403e+002	-3.87541491009201e+000,-9.48765827510472e-004
2.13796208950222e+002	-3.87541492225523e+000,-9.14917876655258e-004
2.18776162394954e+002	-3.87541493382225e+000,-8.81555026326953e-004
2.23872113856832e+002	-3.87541494475092e+000,-8.48659589018380e-004
2.29086765276776e+002	-3.87541495516990e+000,-8.16214120928131e-004
2.34422881531991e+002	-3.87541496502518e+000,-7.84201421555294e-004
2.39883291901947e+002	-3.87541497436641e+000,-7.52604515164950e-004
2.45470891568501e+002	-3.87541498325254e+000,-7.21406650064210e-004
2.51188643150956e+002	-3.87541499157771e+000,-6.90591283590487e-004
2.57039578276885e+002	-3.87541499952289e+000,-6.60142078124502e-004
2.63026799189536e+002	-3.87541500697073e+000,-6.30042887997106e-004
2.69153480392690e+002	-3.87541501401438e+000,-6.00277755048202e-004
2.75422870333815e+002	-3.87541502063979e+000,-5.70830897415649e-004
2.81838293126443e+002	-3.87541502687077e+000,-5.41686701095398e-004
2.88403150312659e+002	-3.87541503269242e+000,-5.12829715868897e-004
2.95120922666637e+002	-3.87541503815543e+000,-4.84244637536854e-004
3.01995172040200e+002	-3.87541504327143e+000,-4.55916312736300e-004
3.09029543251357e+002	-3.87541504801329e+000,-4.27829721253953e-004
3.16227766016836e+002	-3.87541505242953e+000,-3.99969969941608e-004
3.23593656929626e+002	-3.87541505650078e+000,-3.72322288812213e-004
3.31131121482589e+002	-3.87541506025533e+000,-3.44872017677936e-004
3.38844156139200e+002	-3.87541506370086e+000,-3.17604601659655e-004
3.46736850452529e+002	-3.87541506683525e+000,-2.90505583098278e-004
3.54813389233573e+002	-3.87541506967527e+000,-2.63560595382630e-004
3.63078054770099e+002	-3.87541507220755e+000,-2.36755352404710e-004
3.71535229097170e+002	-3.87541507444725e+000,-2.10075637910128e-004
3.80189396320558e+002	-3.87541507638975e+000,-1.83507308699126e-004
3.89045144994278e+002	-3.87541507807739e+000,-1.57036278785983e-004
3.98107170553494e+002	-3.87541507950432e+000,-1.30648510130634e-004
4.07380277804110e+002	-3.87541508060679e+000,-1.04330013158310e-004
4.16869383470332e+002	-3.87541508144488e+000,-7.80668339392929e-005
4.26579518801589e+002	-3.87541508204863e+000,-5.18450465673542e-005
4.36515832240163e+002	-3.87541508235255e+000,-2.56507481840747e-005
4.46683592150960e+002	-3.87541508238641e+000,5.29949524210704e-007
4.57088189614872e+002	-3.87541508217866e+000,2.67109291481248e-005
4.67735141287195e+002	-3.87541508169113e+000,5.29060704102100e-005
4.78630092322635e+002	-3.87541508091270e+000,7.91292642796496e-005
4.89778819368443e+002	-3.87541507989977e+000,1.05394411019703e-004
5.01187233627268e+002	-3.87541507857338e+000,1.31715441734095e-004
5.12861383991361e+002	-3.87541507698800e+000,1.58106308854773e-004
5.24807460249769e+002	-3.87541507512175e+000,1.84581006952841e-004
5.37031796370249e+002	-3.87541507297027e+000,2.11153570503997e-004
5.49540873857620e+002	-3.87541507054844e+000,2.37838091618307e-004
5.62341325190345e+002	-3.87541506781274e+000,2.64648717812155e-004
5.75439937337152e+002	-3.87541506477680e+000,2.91599663322529e-004
5.88843655355584e+002	-3.87541506144335e+000,3.18705219535157e-004
6.02559586074353e+002	-3.87541505780579e+000,3.45979757306883e-004
6.16595001861477e+002	-3.87541505382774e+000,3.73437737509898e-004
6.30957344480188e+002	-3.87541504953878e+000,4.01093720000393e-004
6.45654229034650e+002	-3.87541504490098e+000,4.28962367731985e-004
6.60693448007591e+002	-3.87541503990530e+000,4.57058454587844e-004
6.76082975391976e+002	-3.87541503455940e+000,4.85396880395530e-004
6.91830970918931e+002	-3.87541502887193e+000,5.13992673597151e-004
7.07945784384132e+002	-3.87541502275388e+000,5.42860986936381e-004
7.24435960074984e+002	-3.87541501626903e+000,5.72017135911424e-004
7.41310241300911e+002	-3.87541500936512e+000,6.01476579008090e-004
7.58577575029177e+002	-3.87541500204692e+000,6.31254926655164e-004
7.76247116628685e+002	-3.87541499427960e+000,6.61367977798174e-004
