time	V(n001)	V(n006)
0.000000000000000e+00	0.000000e+00	0.000000e+00
1.797698234880247e-06	2.531946e-16	-2.531946e-16
3.595396469760494e-06	2.200836e-16	-2.200836e-16
5.393094704640741e-06	-9.933295e-17	9.933295e-17
7.190792939520988e-06	-7.050552e-16	7.050552e-16
8.988491174401235e-06	-1.597083e-15	1.597083e-15
1.078618940928148e-05	-2.775416e-15	2.775416e-15
1.258388764416172e-05	-4.240056e-15	4.240056e-15
2.516679928835105e-05	-9.166325e-14	9.166325e-14
3.232933246289107e-05	-4.681147e-13	4.681147e-13
3.685420484655992e-05	-1.507173e-12	1.507173e-12
3.976803351059301e-05	-3.557331e-12	3.557331e-12
4.194676135958827e-05	-7.347889e-12	7.347889e-12
4.392249191331754e-05	-1.513798e-11	1.513798e-11
4.602427279920526e-05	-3.279399e-11	3.279399e-11
4.797149695314489e-05	-6.783880e-11	6.783880e-11
5.000062251780898e-05	-1.448835e-10	1.448835e-10
5.195227548008843e-05	-3.016997e-10	3.016997e-10
5.395078450198100e-05	-6.392776e-10	6.392776e-10
5.590952600822063e-05	-1.336476e-09	1.336476e-09
5.789450924141361e-05	-2.820676e-09	2.820676e-09
5.985864894719827e-05	-5.910426e-09	5.910426e-09
6.183731811537777e-05	-1.244859e-08	1.244859e-08
6.380501081430207e-05	-2.611741e-08	2.611741e-08
6.578086101199560e-05	-5.494494e-08	5.494494e-08
6.775127062142533e-05	-1.153350e-07	1.153350e-07
6.972702942441094e-05	-2.423964e-07	2.423964e-07
7.170175966335557e-05	-5.085587e-07	5.085587e-07
7.368336489739205e-05	-1.066546e-06	1.066546e-06
7.567269500574458e-05	-2.230046e-06	2.230046e-06
7.768297377115855e-05	-4.644633e-06	4.644633e-06
7.973280395936141e-05	-9.606119e-06	9.606119e-06
8.186535772022199e-05	-1.970757e-05	1.970757e-05
8.415439839915910e-05	-4.014521e-05	4.014521e-05
8.674694765517138e-05	-8.204376e-05	8.204376e-05
8.989160464964524e-05	-1.708774e-04	1.708774e-04
9.403996486359710e-05	-3.712662e-04	3.712662e-04
1.000256925093294e-04	-8.635675e-04	8.635675e-04
1.095003395613189e-04	-2.211518e-03	2.211518e-03
1.260252630920106e-04	-6.444717e-03	6.444717e-03
1.584668558067473e-04	-2.197732e-02	2.197732e-02
2.233500412362208e-04	-8.092217e-02	8.092217e-02
3.531164120951677e-04	-2.990796e-01	2.990796e-01
6.007785282835104e-04	-9.680166e-01	9.680166e-01
8.561559241679611e-04	-1.970240e+00	1.970240e+00
1.241773848499605e-03	-3.966183e+00	3.966183e+00
1.714019852220211e-03	-6.897356e+00	6.897356e+00
2.479696439827824e-03	-1.208939e+01	1.208939e+01
3.391089033200944e-03	-1.814513e+01	1.814513e+01
4.085797093545424e-03	-2.229940e+01	2.229940e+01
4.415739540700954e-03	-2.395908e+01	2.395908e+01
4.763251304645411e-03	-2.536428e+01	2.536428e+01
5.211867786462946e-03	-2.674629e+01	2.674629e+01
5.644889971403846e-03	-2.756433e+01	2.756433e+01
6.347320025041691e-03	-2.808811e+01	2.808811e+01
7.323882525041691e-03	-2.823213e+01	2.823213e+01
8.300445025041691e-03	-2.823213e+01	2.823213e+01
9.277007525041691e-03	-2.823213e+01	2.823213e+01
1.025357002504169e-02	-2.823213e+01	2.823213e+01
1.123013252504169e-02	-2.823213e+01	2.823213e+01
1.220669502504169e-02	-2.823213e+01	2.823213e+01
1.318325752504169e-02	-2.825910e+01	2.825910e+01
1.400504970368921e-02	-2.834813e+01	2.834813e+01
1.411942666355065e-02	-2.838921e+01	2.838921e+01
1.434818058327353e-02	-2.854069e+01	2.854069e+01
1.480568842271930e-02	-2.890333e+01	2.890333e+01
1.522770217449401e-02	-2.919505e+01	2.919505e+01
1.567064968174521e-02	-2.935436e+01	2.935436e+01
1.638892065152322e-02	-2.941468e+01	2.941468e+01
1.736548315152322e-02	-2.942124e+01	2.942124e+01
1.834204565152322e-02	-2.942124e+01	2.942124e+01
1.931860815152322e-02	-2.942124e+01	2.942124e+01
2.029517065152322e-02	-2.942124e+01	2.942124e+01
2.127173315152322e-02	-2.942124e+01	2.942124e+01
2.224829565152322e-02	-2.942124e+01	2.942124e+01
2.322485815152322e-02	-2.942124e+01	2.942124e+01
2.402137329801795e-02	-2.942645e+01	2.942645e+01
2.436747429535864e-02	-2.944110e+01	2.944110e+01
2.462705004336415e-02	-2.950345e+01	2.950345e+01
2.497315104070484e-02	-2.962010e+01	2.962010e+01
2.529002053932401e-02	-2.970476e+01	2.970476e+01
2.577199379884337e-02	-2.976151e+01	2.976151e+01
2.655231056276705e-02	-2.977833e+01	2.977833e+01
2.752887306276705e-02	-2.977833e+01	2.977833e+01
2.850543556276705e-02	-2.977833e+01	2.977833e+01
2.948199806276705e-02	-2.977833e+01	2.977833e+01
3.045856056276705e-02	-2.977833e+01	2.977833e+01
3.143512306276705e-02	-2.977833e+01	2.977833e+01
3.241168556276705e-02	-2.977833e+01	2.977833e+01
3.338824806276705e-02	-2.977833e+01	2.977833e+01
3.408470589248914e-02	-2.977834e+01	2.977834e+01
3.441492080810914e-02	-2.978655e+01	2.978655e+01
3.476226058953840e-02	-2.981931e+01	2.981931e+01
3.521149782783763e-02	-2.987841e+01	2.987841e+01
3.564428807474219e-02	-2.991146e+01	2.991146e+01
3.634634767329868e-02	-2.992149e+01	2.992149e+01
3.732291017329868e-02	-2.992149e+01	2.992149e+01
3.829947267329868e-02	-2.992149e+01	2.992149e+01
3.927603517329868e-02	-2.992149e+01	2.992149e+01
4.025259767329868e-02	-2.992149e+01	2.992149e+01
4.122916017329868e-02	-2.992149e+01	2.992149e+01
4.220572267329868e-02	-2.992149e+01	2.992149e+01
4.318228517329868e-02	-2.992149e+01	2.992149e+01
4.400466711522830e-02	-2.992149e+01	2.992149e+01
4.435498287634844e-02	-2.992428e+01	2.992428e+01
4.468992465575413e-02	-2.993404e+01	2.993404e+01
4.475173941871039e-02	-2.993871e+01	2.993871e+01
4.487536894462291e-02	-2.995291e+01	2.995291e+01
4.512262799644795e-02	-2.997821e+01	2.997821e+01
4.549965838154030e-02	-2.999802e+01	2.999802e+01
4.611231530724937e-02	-3.000465e+01	3.000465e+01
4.708887780724937e-02	-3.000465e+01	3.000465e+01
4.806544030724937e-02	-3.000465e+01	3.000465e+01
4.904200280724937e-02	-3.000465e+01	3.000465e+01
5.001856530724937e-02	-3.000465e+01	3.000465e+01
5.099512780724937e-02	-3.000465e+01	3.000465e+01
5.197169030724937e-02	-3.000465e+01	3.000465e+01
5.294825280724937e-02	-3.000465e+01	3.000465e+01
5.392481530724937e-02	-3.000465e+01	3.000465e+01
5.429542327407802e-02	-3.000481e+01	3.000481e+01
5.461710969789572e-02	-3.000918e+01	3.000918e+01
5.492702633248116e-02	-3.002208e+01	3.002208e+01
5.527287302383641e-02	-3.003767e+01	3.003767e+01
5.574411428280417e-02	-3.004788e+01	3.004788e+01
5.583952603347571e-02	-3.004836e+01	3.004836e+01
5.603034953481878e-02	-3.004836e+01	3.004836e+01
5.641199653750492e-02	-3.004836e+01	3.004836e+01
5.717529054287721e-02	-3.004836e+01	3.004836e+01
5.815185304287721e-02	-3.004836e+01	3.004836e+01
5.912841554287721e-02	-3.004836e+01	3.004836e+01
6.010497804287721e-02	-3.004836e+01	3.004836e+01
6.108154054287721e-02	-3.004836e+01	3.004836e+01
6.205810304287721e-02	-3.004836e+01	3.004836e+01
6.303466554287721e-02	-3.004836e+01	3.004836e+01
6.401122804287721e-02	-3.004836e+01	3.004836e+01
6.435988732870770e-02	-3.004882e+01	3.004882e+01
6.469582892114126e-02	-3.005325e+01	3.005325e+01
6.506683925514931e-02	-3.006464e+01	3.006464e+01
6.540883251161343e-02	-3.007336e+01	3.007336e+01
6.596500387688504e-02	-3.007707e+01	3.007707e+01
6.607713944554397e-02	-3.007707e+01	3.007707e+01
6.630141058286181e-02	-3.007707e+01	3.007707e+01
6.674995285749748e-02	-3.007707e+01	3.007707e+01
6.764703740676882e-02	-3.007707e+01	3.007707e+01
6.862359990676882e-02	-3.007707e+01	3.007707e+01
6.960016240676882e-02	-3.007707e+01	3.007707e+01
7.057672490676882e-02	-3.007707e+01	3.007707e+01
7.155328740676882e-02	-3.007707e+01	3.007707e+01
7.252984990676882e-02	-3.007707e+01	3.007707e+01
7.350641240676882e-02	-3.007707e+01	3.007707e+01
7.412984229280620e-02	-3.007707e+01	3.007707e+01
7.444882081327117e-02	-3.007838e+01	3.007838e+01
7.480333819346553e-02	-3.008327e+01	3.008327e+01
7.485627415101634e-02	-3.008509e+01	3.008509e+01
7.496214606611797e-02	-3.009014e+01	3.009014e+01
7.517388989632122e-02	-3.009765e+01	3.009765e+01
7.558309380461703e-02	-3.010380e+01	3.010380e+01
7.624741687438040e-02	-3.010565e+01	3.010565e+01
7.722397937438040e-02	-3.010565e+01	3.010565e+01
7.820054187438040e-02	-3.010565e+01	3.010565e+01
7.917710437438040e-02	-3.010565e+01	3.010565e+01
8.015366687438040e-02	-3.010565e+01	3.010565e+01
8.113022937438040e-02	-3.010565e+01	3.010565e+01
8.210679187438040e-02	-3.010565e+01	3.010565e+01
8.308335437438040e-02	-3.010565e+01	3.010565e+01
8.405991687438040e-02	-3.010565e+01	3.010565e+01
8.439633272151595e-02	-3.010592e+01	3.010592e+01
8.473978658609256e-02	-3.010754e+01	3.010754e+01
8.520310145370268e-02	-3.011160e+01	3.011160e+01
8.563062728836045e-02	-3.011432e+01	3.011432e+01
8.632427511236439e-02	-3.011537e+01	3.011537e+01
8.730083761236439e-02	-3.011537e+01	3.011537e+01
8.827740011236439e-02	-3.011537e+01	3.011537e+01
8.925396261236439e-02	-3.011537e+01	3.011537e+01
9.023052511236439e-02	-3.011537e+01	3.011537e+01
9.120708761236439e-02	-3.011537e+01	3.011537e+01
9.218365011236439e-02	-3.011537e+01	3.011537e+01
9.316021261236439e-02	-3.011537e+01	3.011537e+01
9.399596906823759e-02	-3.011537e+01	3.011537e+01
9.434848335483990e-02	-3.011541e+01	3.011541e+01
9.468210430714069e-02	-3.011724e+01	3.011724e+01
9.504247025513012e-02	-3.012277e+01	3.012277e+01
9.536915431169903e-02	-3.012728e+01	3.012728e+01
9.590058121720921e-02	-3.012929e+01	3.012929e+01
9.675891410919606e-02	-3.012929e+01	3.012929e+01
9.773547660919606e-02	-3.012929e+01	3.012929e+01
9.871203910919606e-02	-3.012929e+01	3.012929e+01
9.968860160919606e-02	-3.012929e+01	3.012929e+01
1.006651641091961e-01	-3.012929e+01	3.012929e+01
1.016417266091961e-01	-3.012929e+01	3.012929e+01
1.026182891091961e-01	-3.012929e+01	3.012929e+01
1.035948516091961e-01	-3.012929e+01	3.012929e+01
1.041633271454788e-01	-3.012929e+01	3.012929e+01
1.044740137019380e-01	-3.012997e+01	3.012997e+01
1.048339380356812e-01	-3.013258e+01	3.013258e+01
1.048844745963826e-01	-3.013353e+01	3.013353e+01
1.049855477177854e-01	-3.013610e+01	3.013610e+01
1.051876939605909e-01	-3.013955e+01	3.013955e+01
1.055919864462019e-01	-3.014203e+01	3.014203e+01
1.062618020134657e-01	-3.014266e+01	3.014266e+01
1.072383645134657e-01	-3.014266e+01	3.014266e+01
1.082149270134657e-01	-3.014266e+01	3.014266e+01
1.091914895134657e-01	-3.014266e+01	3.014266e+01
1.101680520134657e-01	-3.014266e+01	3.014266e+01
1.111446145134657e-01	-3.014266e+01	3.014266e+01
1.121211770134657e-01	-3.014266e+01	3.014266e+01
1.130977395134657e-01	-3.014266e+01	3.014266e+01
1.139712087755545e-01	-3.014266e+01	3.014266e+01
1.143299971497327e-01	-3.014267e+01	3.014267e+01
1.146598875986482e-01	-3.014378e+01	3.014378e+01
1.149617825697959e-01	-3.014691e+01	3.014691e+01
1.152857947124774e-01	-3.015016e+01	3.015016e+01
1.157651236604191e-01	-3.015161e+01	3.015161e+01
1.165412490054425e-01	-3.015166e+01	3.015166e+01
1.175178115054425e-01	-3.015166e+01	3.015166e+01
1.184943740054425e-01	-3.015166e+01	3.015166e+01
1.194709365054425e-01	-3.015166e+01	3.015166e+01
1.204474990054425e-01	-3.015166e+01	3.015166e+01
1.214240615054425e-01	-3.015166e+01	3.015166e+01
1.224006240054425e-01	-3.015166e+01	3.015166e+01
1.233771865054425e-01	-3.015166e+01	3.015166e+01
1.240804541879112e-01	-3.015166e+01	3.015166e+01
1.244117311313799e-01	-3.015176e+01	3.015176e+01
1.247584015483162e-01	-3.015230e+01	3.015230e+01
1.252100566237269e-01	-3.015359e+01	3.015359e+01
1.252640424607545e-01	-3.015369e+01	3.015369e+01
1.253720141348098e-01	-3.015376e+01	3.015376e+01
1.253990070533235e-01	-3.015377e+01	3.015377e+01
1.254529928903512e-01	-3.015377e+01	3.015377e+01
1.255609645644064e-01	-3.015377e+01	3.015377e+01
1.255879574829202e-01	-3.015377e+01	3.015377e+01
1.256419433199478e-01	-3.015377e+01	3.015377e+01
1.259658583421135e-01	-3.015377e+01	3.015377e+01
1.263977450383344e-01	-3.015377e+01	3.015377e+01
1.272615184307762e-01	-3.015377e+01	3.015377e+01
1.282380809307762e-01	-3.015377e+01	3.015377e+01
1.292146434307762e-01	-3.015377e+01	3.015377e+01
1.301912059307762e-01	-3.015377e+01	3.015377e+01
1.311677684307762e-01	-3.015377e+01	3.015377e+01
1.321443309307762e-01	-3.015377e+01	3.015377e+01
1.331208934307762e-01	-3.015377e+01	3.015377e+01
1.339804104803304e-01	-3.015377e+01	3.015377e+01
1.343368644815621e-01	-3.015378e+01	3.015378e+01
1.346681361812384e-01	-3.015474e+01	3.015474e+01
1.349792356444274e-01	-3.015750e+01	3.015750e+01
1.352922821812821e-01	-3.016013e+01	3.016013e+01
1.357756705320247e-01	-3.016132e+01	3.016132e+01
1.365582295248369e-01	-3.016135e+01	3.016135e+01
1.375347920248369e-01	-3.016135e+01	3.016135e+01
1.385113545248369e-01	-3.016135e+01	3.016135e+01
1.394879170248369e-01	-3.016135e+01	3.016135e+01
1.404644795248369e-01	-3.016135e+01	3.016135e+01
1.414410420248369e-01	-3.016135e+01	3.016135e+01
1.415631123373369e-01	-3.016135e+01	3.016135e+01
1.418072529623369e-01	-3.016135e+01	3.016135e+01
1.422955342123369e-01	-3.016135e+01	3.016135e+01
1.430818275979276e-01	-3.016135e+01	3.016135e+01
1.440583900979276e-01	-3.016135e+01	3.016135e+01
1.443951885740722e-01	-3.016139e+01	3.016139e+01
1.447384044312909e-01	-3.016171e+01	3.016171e+01
1.452025848167798e-01	-3.016263e+01	3.016263e+01
1.452559850519034e-01	-3.016271e+01	3.016271e+01
1.453627855221508e-01	-3.016276e+01	3.016276e+01
1.455763864626455e-01	-3.016278e+01	3.016278e+01
1.460035883436349e-01	-3.016278e+01	3.016278e+01
1.468579921056138e-01	-3.016278e+01	3.016278e+01
1.478345546056138e-01	-3.016278e+01	3.016278e+01
1.488111171056138e-01	-3.016278e+01	3.016278e+01
1.497876796056138e-01	-3.016278e+01	3.016278e+01
1.507642421056138e-01	-3.016278e+01	3.016278e+01
1.517408046056138e-01	-3.016278e+01	3.016278e+01
1.527173671056138e-01	-3.016278e+01	3.016278e+01
1.536939296056138e-01	-3.016278e+01	3.016278e+01
1.542005959547142e-01	-3.016278e+01	3.016278e+01
1.545020957289439e-01	-3.016326e+01	3.016326e+01
1.548681170427347e-01	-3.016494e+01	3.016494e+01
1.552509578427338e-01	-3.016671e+01	3.016671e+01
1.557084760021730e-01	-3.016749e+01	3.016749e+01
1.564499583028976e-01	-3.016757e+01	3.016757e+01
1.574265208028976e-01	-3.016757e+01	3.016757e+01
1.584030833028976e-01	-3.016757e+01	3.016757e+01
1.593796458028976e-01	-3.016757e+01	3.016757e+01
1.603562083028976e-01	-3.016757e+01	3.016757e+01
1.613327708028976e-01	-3.016757e+01	3.016757e+01
1.623093333028976e-01	-3.016757e+01	3.016757e+01
1.632858958028976e-01	-3.016757e+01	3.016757e+01
1.633808052617463e-01	-3.016757e+01	3.016757e+01
1.635706241794437e-01	-3.016757e+01	3.016757e+01
1.639502620148385e-01	-3.016757e+01	3.016757e+01
1.644325116967021e-01	-3.016771e+01	3.016771e+01
1.647872874717922e-01	-3.016816e+01	3.016816e+01
1.652208392436499e-01	-3.016896e+01	3.016896e+01
1.656594853436540e-01	-3.016943e+01	3.016943e+01
1.663708941139471e-01	-3.016957e+01	3.016957e+01
1.673474566139471e-01	-3.016957e+01	3.016957e+01
1.683240191139471e-01	-3.016957e+01	3.016957e+01
1.693005816139471e-01	-3.016957e+01	3.016957e+01
1.702771441139471e-01	-3.016957e+01	3.016957e+01
1.712537066139471e-01	-3.016957e+01	3.016957e+01
1.722302691139471e-01	-3.016957e+01	3.016957e+01
1.732068316139471e-01	-3.016957e+01	3.016957e+01
1.740143105634692e-01	-3.016957e+01	3.016957e+01
1.743621921398537e-01	-3.016958e+01	3.016958e+01
1.746986045122891e-01	-3.017027e+01	3.017027e+01
1.750717670788326e-01	-3.017244e+01	3.017244e+01
1.754168558440968e-01	-3.017424e+01	3.017424e+01
1.759780260748655e-01	-3.017504e+01	3.017504e+01
1.768829145614796e-01	-3.017504e+01	3.017504e+01
1.778594770614796e-01	-3.017504e+01	3.017504e+01
1.788360395614796e-01	-3.017504e+01	3.017504e+01
1.798126020614796e-01	-3.017504e+01	3.017504e+01
1.807891645614796e-01	-3.017504e+01	3.017504e+01
1.817657270614796e-01	-3.017504e+01	3.017504e+01
1.827422895614796e-01	-3.017504e+01	3.017504e+01
1.837188520614796e-01	-3.017504e+01	3.017504e+01
1.842099368213294e-01	-3.017504e+01	3.017504e+01
1.845107328026417e-01	-3.017542e+01	3.017542e+01
1.848812938878185e-01	-3.017675e+01	3.017675e+01
1.852558618509002e-01	-3.017806e+01	3.017806e+01
1.857164515299477e-01	-3.017862e+01	3.017862e+01
1.864628199982028e-01	-3.017866e+01	3.017866e+01
1.874393824982028e-01	-3.017866e+01	3.017866e+01
1.884159449982028e-01	-3.017866e+01	3.017866e+01
1.893925074982028e-01	-3.017866e+01	3.017866e+01
1.903690699982028e-01	-3.017866e+01	3.017866e+01
1.913456324982028e-01	-3.017866e+01	3.017866e+01
1.923221949982028e-01	-3.017866e+01	3.017866e+01
1.932987574982028e-01	-3.017866e+01	3.017866e+01
1.940501641615782e-01	-3.017866e+01	3.017866e+01
1.943890255886528e-01	-3.017868e+01	3.017868e+01
1.947309617985982e-01	-3.017887e+01	3.017887e+01
1.951998022919800e-01	-3.017943e+01	3.017943e+01
1.956252593523108e-01	-3.017984e+01	3.017984e+01
1.963155998197593e-01	-3.018001e+01	3.018001e+01
1.972921623197593e-01	-3.018001e+01	3.018001e+01
1.982687248197593e-01	-3.018001e+01	3.018001e+01
1.992452873197593e-01	-3.018001e+01	3.018001e+01
2.002218498197593e-01	-3.018001e+01	3.018001e+01
2.011984123197593e-01	-3.018001e+01	3.018001e+01
2.021749748197593e-01	-3.018001e+01	3.018001e+01
2.031515373197593e-01	-3.018001e+01	3.018001e+01
2.032566630814311e-01	-3.018001e+01	3.018001e+01
2.034669146047746e-01	-3.018001e+01	3.018001e+01
2.038874176514616e-01	-3.018001e+01	3.018001e+01
2.043578471044945e-01	-3.018001e+01	3.018001e+01
2.046946597338420e-01	-3.018054e+01	3.018054e+01
2.050647634193024e-01	-3.018220e+01	3.018220e+01
2.054054526683343e-01	-3.018357e+01	3.018357e+01
2.059595177634481e-01	-3.018418e+01	3.018418e+01
2.068533115975838e-01	-3.018418e+01	3.018418e+01
2.078298740975838e-01	-3.018418e+01	3.018418e+01
2.088064365975838e-01	-3.018418e+01	3.018418e+01
2.097829990975838e-01	-3.018418e+01	3.018418e+01
2.107595615975838e-01	-3.018418e+01	3.018418e+01
2.117361240975838e-01	-3.018418e+01	3.018418e+01
2.127126865975838e-01	-3.018418e+01	3.018418e+01
2.136892490975838e-01	-3.018418e+01	3.018418e+01
2.141988403291764e-01	-3.018418e+01	3.018418e+01
2.145007718921940e-01	-3.018445e+01	3.018445e+01
2.148665041735359e-01	-3.018539e+01	3.018539e+01
2.152503574887735e-01	-3.018637e+01	3.018637e+01
2.157074996036414e-01	-3.018680e+01	3.018680e+01
2.164483835276059e-01	-3.018684e+01	3.018684e+01
2.174249460276059e-01	-3.018684e+01	3.018684e+01
2.184015085276059e-01	-3.018684e+01	3.018684e+01
2.193780710276059e-01	-3.018684e+01	3.018684e+01
2.203546335276059e-01	-3.018684e+01	3.018684e+01
2.213311960276059e-01	-3.018684e+01	3.018684e+01
2.223077585276059e-01	-3.018684e+01	3.018684e+01
2.232843210276059e-01	-3.018684e+01	3.018684e+01
2.240445596604543e-01	-3.018684e+01	3.018684e+01
2.243848280068442e-01	-3.018685e+01	3.018685e+01
2.247258949725226e-01	-3.018709e+01	3.018709e+01
2.251501638015392e-01	-3.018786e+01	3.018786e+01
2.255444795081226e-01	-3.018847e+01	3.018847e+01
2.261849202161118e-01	-3.018874e+01	3.018874e+01
2.271614827161118e-01	-3.018874e+01	3.018874e+01
2.281380452161118e-01	-3.018874e+01	3.018874e+01
2.291146077161118e-01	-3.018874e+01	3.018874e+01
2.300911702161118e-01	-3.018874e+01	3.018874e+01
2.310677327161118e-01	-3.018874e+01	3.018874e+01
2.320442952161118e-01	-3.018874e+01	3.018874e+01
2.330208577161118e-01	-3.018874e+01	3.018874e+01
2.339974202161118e-01	-3.018874e+01	3.018874e+01
2.343495675121490e-01	-3.018874e+01	3.018874e+01
2.346834084553375e-01	-3.018922e+01	3.018922e+01
2.350447860085832e-01	-3.019072e+01	3.019072e+01
2.353729249592587e-01	-3.019195e+01	3.019195e+01
2.359067049550196e-01	-3.019250e+01	3.019250e+01
2.367687314970573e-01	-3.019250e+01	3.019250e+01
2.377452939970573e-01	-3.019250e+01	3.019250e+01
2.387218564970573e-01	-3.019250e+01	3.019250e+01
2.396984189970573e-01	-3.019250e+01	3.019250e+01
2.406749814970573e-01	-3.019250e+01	3.019250e+01
2.416515439970573e-01	-3.019250e+01	3.019250e+01
2.426281064970573e-01	-3.019250e+01	3.019250e+01
2.436046689970573e-01	-3.019250e+01	3.019250e+01
2.441670306490621e-01	-3.019250e+01	3.019250e+01
2.444768023257472e-01	-3.019263e+01	3.019263e+01
