#Digilent WaveForms Impedance Analyzer
#Device Name: Discovery2
#Serial Number: SN:210321A364C9
#Date Time: 
#Digilent WaveForms Impedance Analyzer Trace#Trace: Trace
#Start: 20 Hz
#Stop: 20000 Hz
#Steps: 151
#Resistor: 1e+06 O
#Average: 1
#ProbeResistance: 1.04e+06 O
#ProbeCapacitance: 4.3e-11 F
#Compensation:none
#Wavegen: Wavegen1
#Amplitude: 0.029 V
#Offset: 0 V
#Amplification: 1 X
#Settle: 0.01 s
#MinPeriods: 16
#Scale: Logarithmic
#Channel: Channel 1
#Range: 5.5024 V
#Offset: -1.4451e-05 V
#Attenuation: 1 X
#Channel: Channel 2
#Range: 5.48701 V
#Offset: -0.000319257 V
#Attenuation: 1 X

Frequency (Hz),Trace th (deg),Trace |Z| (Ohm)
20.00000000000002,0.05100429168035341,47700.42154630212
20.94257096101801,-0.0120367412156168,47583.84838047566
21.92956392286372,0.02277646968672166,47702.29733855152
22.96307242993768,0.2893677076981812,47671.84348456448
24.04528869234826,0.106368527473134,47621.54757430511
25.17850823588337,0.0852133464383148,47620.57551078645
26.36513477112818,0.05090757064192639,47802.30156926753
27.60768529205771,-0.01163287615989411,47460.70467952549
28.90879541491859,0.24137633861782,47658.19389140411
30.2712249687242,0.002447724766230344,47736.14906533999
31.69786384922228,0.0302466802223282,47520.60607679222
33.19173814875126,0.1419008407459773,47555.42223789385
34.75601657498753,-0.1298541524727234,47434.48198313284
36.39401717219969,-0.1844502918575213,47682.48203814917
38.109214359265,0.05818897638075381,47521.53364983414
39.90524629937762,-0.1228427359060216,47585.71577493759
41.78592261708081,0.1536012659830266,47476.02091311911
43.75523247899108,-0.05415051174330197,48192.54632364854
45.81735305535549,1.165265122530878,47762.15969244723
47.97665838038985,0.8512908639371543,48358.29149653612
50.23772863019164,-1.295697563521737,47757.61148684745
52.60535983790768,0.685169096027204,46671.8643101325
55.08457406676338,-0.3646114211528806,46743.71904724731
57.68063006253217,0.4798532237646436,47049.7957384257
60.39903440804039,0.4452172403223202,47460.80983024655
63.24555320336765,0.001153972581408445,47848.36761339784
66.22622429651828,0.05173355856889402,47612.36293428132
69.34737009050633,0.1724317756850616,47707.34637546787
72.61561095402035,0.07779781343835789,47692.63919901862
76.03787926411233,0.06740338456694117,47678.55394286068
79.62143411069947,0.03293905853496067,47719.84964977272
83.37387669406719,0.05741768489631265,47707.52090935621
87.30316644803331,0.02534746846753573,47648.76671338453
91.41763792297505,0.3574764649918901,47610.0934346334
95.7260184645278,-0.03241027880626877,47665.18287422258
100.2374467254546,0.2324240870381658,48020.5360163463
104.9614920499546,-0.1587927042686151,47644.67363017266
109.9081747715251,0.2871453649715911,47755.3521567259
115.0879874674316,0.2557866864862861,47560.18798783603
120.5119172148716,-0.06565065817258728,47562.28102983737
126.1914688960387,0.09196839426290124,47600.38746665748
132.1386896015193,0.1051143910403006,47795.88370738157
138.3661941837874,0.1331787761459427,47655.91134689914
144.8871920149981,0.08504678360456909,47639.37834780043
151.7155150058369,0.2432697089752096,47818.7934432022
158.8656469448564,0.09394363780575234,47600.09427749805
166.3527542205344,0.114777393268898,47797.0744184814
174.1927179912163,-0.04624451458300702,47674.03003455853
182.4021678711821,0.1837082922804833,47686.70650932704
190.9985172042874,-0.005132212479598234,47651.38212030933
200,-0.006401425460266335,47774.64956664095
209.4257096101801,0.2059706924791781,47765.72953319865
219.2956392286371,0.179262803715602,47704.37915000288
229.6307242993766,0.0993313994576062,47728.09463457698
240.4528869234827,0.3189679965892356,47789.79787254107
251.7850823588336,0.1300831437153725,47811.02129128682
263.6513477112815,0.2854946826103592,47727.05047703406
276.0768529205772,0.1141314610016685,47538.02331509764
289.0879541491857,0.3092917010078345,47582.97051978008
302.7122496872418,0.2386074079443042,47713.91038752282
316.978638492223,0.07925618664748887,47677.04165913261
331.9173814875124,0.08332647354368439,47693.28666262671
347.5601657498752,0.1204833791609358,47666.46088704046
363.9401717219967,0.5444185428884705,47820.35566221669
381.0921435926499,0.4225893321268413,47873.27184141676
399.0524629937762,0.0049451887492385,47674.57341529794
417.8592261708079,-0.2068659660087936,48014.94026886396
437.5523247899108,0.3371608404283233,47612.99304760313
458.1735305535549,0.2658226955984933,47776.25809461995
479.7665838038982,-0.2438942288427228,47771.25644301339
502.3772863019165,0.4296358426584957,47916.89307176696
526.0535983790769,0.2456800486086694,47871.30580492911
550.8457406676334,0.109750932117233,47866.15341870455
576.8063006253217,0.1837230468966258,47763.60315448455
603.9903440804038,0.1244984231218976,47695.45541261994
632.4555320336763,0.2180655720980408,47596.18915084195
662.2622429651825,0.2506836670264723,47892.6699339504
693.4737009050633,0.4734615080041173,47814.40791105211
726.1561095402031,0.2868036297281633,47755.30972566155
760.3787926411225,0.1913094839486744,47507.4074816919
796.2143411069947,0.2698313089796046,47618.5013625232
833.7387669406713,0.3521155395200558,47826.58389448911
873.0316644803322,0.5183681401823661,47968.02766550348
914.1763792297504,0.1668994694910361,47845.2515797973
957.2601846452776,0.5174690331688231,47939.45462810795
1002.374467254545,0.2434360110847497,48022.31143161798
1049.614920499546,0.129643232516798,47734.04836920551
1099.081747715249,0.3229271531882326,47924.84796427536
1150.879874674314,0.7153039791330467,47706.95828482554
1205.119172148716,0.1564744457406169,47741.35244875681
1261.914688960387,0.3602431426097623,47958.77930007125
1321.386896015193,0.4846660222533359,47924.06854809675
1383.661941837873,0.7488151473093054,48005.63696779997
1448.87192014998,0.3438472678331824,47802.91672451081
1517.155150058369,0.7017089562742092,47862.88565764596
1588.656469448563,0.4800775294142317,48250.19489391442
1663.527542205343,0.4537222502597916,48370.22424193429
1741.927179912161,0.5406584063257432,47772.95720402236
1824.02167871182,0.517208122523802,48194.40745046794
1909.985172042873,0.4528389792831355,48495.7866642607
2000,0.4265809531888474,48143.83459077848
2094.2570961018,0.3770937827858044,48287.06277764183
2192.956392286371,0.239320041574232,48254.08713628205
2296.307242993766,0.5665217498305707,48574.60873965974
2404.528869234827,0.2667756893104999,48766.98965359837
2517.850823588335,0.7284028145373861,48693.18661610196
2636.513477112815,0.3340533784059199,48717.42945870987
2760.768529205771,0.2896365142306702,48581.83661975028
2890.879541491855,0.2622742958943804,48578.56583085326
3027.122496872418,0.3814202333372274,48543.13870833517
3169.786384922227,0.5073016733411955,48721.56942434828
3319.173814875122,-0.1072304536964873,48728.34783691771
3475.601657498753,-0.1596688317532854,49052.48410737007
3639.401717219967,-0.09636077626385946,48910.14935198714
3810.921435926495,-0.2784364052380756,49306.33570469702
3990.524629937762,-0.3708420070565153,49279.5519764698
4178.59226170808,-0.7063817467305861,49521.53973231099
4375.523247899107,-0.484178985699745,49260.47203516855
4581.735305535546,-0.4409101802307579,49123.88255432409
4797.665838038982,-0.6744699257425455,49384.63070997816
5023.772863019163,-0.6549871776099608,49119.91627330476
5260.535983790764,-0.2698026181529263,49154.5217859722
5508.457406676334,-0.8420597283632796,48999.18409336525
5768.063006253211,-0.5844555594344084,49187.99058379116
6039.903440804034,-1.147131461400882,49083.68293922978
6324.555320336761,-0.543307771505749,48848.47709330728
6622.622429651821,-0.6699372275442063,48960.41907398251
6934.737009050635,-0.9675105021620811,48770.84743868981
7261.56109540203,-1.067574003131706,49078.89126206573
7603.787926411224,-1.295083852664375,48940.29610768382
7962.143411069947,-1.672765567245491,49222.85886972761
8337.387669406708,-2.135796715047145,49168.76874812258
8730.316644803321,-1.59939882884911,49142.77559006647
9141.763792297505,-2.120064448257809,49151.67948922094
9572.601846452766,-2.252295737354571,48671.42842483646
10023.74467254545,-1.994357222903517,48509.71246953599
10496.14920499545,-2.330939692446738,49354.34032981973
10990.81747715249,-2.604718108707669,48782.37533611892
11508.79874674314,-2.625637987673268,48779.83060999807
12051.19172148715,-2.735749349564919,48984.12826480804
12619.14688960387,-3.409243433279558,48085.89989262185
13213.86896015192,-2.325342221555164,48289.15850239598
13836.61941837873,-3.076223425114247,48280.88083208965
14488.71920149981,-3.472608466067386,48557.33323382089
15171.55150058367,-4.047459511861027,48325.48837289803
15886.56469448563,-4.380132060297082,48703.44779206935
16635.27542205343,-4.457702597264655,48325.97720107606
17419.27179912161,-4.409828746022148,48323.38883991722
18240.2167871182,-5.855242785180416,48719.23710221086
19099.85172042871,-4.293846590569308,47893.60130773836
20000,-4.371575371785427,48674.26474607607
