Freq.	V(out)
1.00000000000000e+00	(1.50175133233920e+01dB,1.12104051280673e+02°)
1.02329299228075e+00	(1.53127352329228e+01dB,1.11152256880812e+02°)
1.04712854805090e+00	(1.56046566524632e+01dB,1.10183565999302e+02°)
1.07151930523761e+00	(1.58931930469065e+01dB,1.09198388467689e+02°)
1.09647819614318e+00	(1.61782614867148e+01dB,1.08197156672122e+02°)
1.12201845430196e+00	(1.64597808475942e+01dB,1.07180325471062e+02°)
1.14815362149688e+00	(1.67376720134620e+01dB,1.06148372021799e+02°)
1.17489755493953e+00	(1.70118580817189e+01dB,1.05101795511252e+02°)
1.20226443461741e+00	(1.72822645696310e+01dB,1.04041116788192e+02°)
1.23026877081238e+00	(1.75488196205695e+01dB,1.02966877894392e+02°)
1.25892541179417e+00	(1.78114542087832e+01dB,1.01879641493287e+02°)
1.28824955169313e+00	(1.80701023413421e+01dB,1.00779990195105e+02°)
1.31825673855641e+00	(1.83247012559548e+01dB,9.96685257782584e+01°)
1.34896288259165e+00	(1.85751916131666e+01dB,9.85458683082315e+01°)
1.38038426460288e+00	(1.88215176815133e+01dB,9.74126551558315e+01°)
1.41253754462275e+00	(1.90636275143545e+01dB,9.62695399170334e+01°)
1.44543977074593e+00	(1.93014731168781e+01dB,9.51171912386919e+01°)
1.47910838816821e+00	(1.95350106020274e+01dB,9.39562915544436e+01°)
1.51356124843621e+00	(1.97642003341038e+01dB,9.27875357360503e+01°)
1.54881661891248e+00	(1.99890070586780e+01dB,9.16116296677287e+01°)
1.58489319246111e+00	(2.02094000179804e+01dB,9.04292887489650e+01°)
1.62181009735893e+00	(2.04253530505065e+01dB,8.92412363354382e+01°)
1.65958690743756e+00	(2.06368446741298e+01dB,8.80482021256295e+01°)
1.69824365246174e+00	(2.08438581518677e+01dB,8.68509205030616e+01°)
1.73780082874937e+00	(2.10463815397564e+01dB,8.56501288434774e+01°)
1.77827941003892e+00	(2.12444077163417e+01dB,8.44465657973382e+01°)
1.81970085860998e+00	(2.14379343934195e+01dB,8.32409695585263e+01°)
1.86208713666287e+00	(2.16269641080254e+01dB,8.20340761288097e+01°)
1.90546071796325e+00	(2.18115041955103e+01dB,8.08266175900500e+01°)
1.94984459975804e+00	(2.19915667440185e+01dB,7.96193203936818e+01°)
1.99526231496888e+00	(2.21671685306174e+01dB,7.84129036785478e+01°)
2.04173794466953e+00	(2.23383309395953e+01dB,7.72080776269641e+01°)
2.08929613085404e+00	(2.25050798635541e+01dB,7.60055418687468e+01°)
2.13796208950223e+00	(2.26674455881133e+01dB,7.48059839420493e+01°)
2.18776162394955e+00	(2.28254626609826e+01dB,7.36100778207239e+01°)
2.23872113856834e+00	(2.29791697466518e+01dB,7.24184825141270e+01°)
2.29086765276777e+00	(2.31286094675798e+01dB,7.12318407484198e+01°)
2.34422881531992e+00	(2.32738282332152e+01dB,7.00507777345496e+01°)
2.39883291901949e+00	(2.34148760581304e+01dB,6.88759000281840e+01°)
2.45470891568503e+00	(2.35518063704702e+01dB,6.77077944872237e+01°)
2.51188643150958e+00	(2.36846758122880e+01dB,6.65470273286552e+01°)
2.57039578276886e+00	(2.38135440329268e+01dB,6.53941432893163e+01°)
2.63026799189538e+00	(2.39384734770429e+01dB,6.42496648907277e+01°)
2.69153480392691e+00	(2.40595291685195e+01dB,6.31140918096820e+01°)
2.75422870333816e+00	(2.41767784917225e+01dB,6.19879003541646e+01°)
2.81838293126445e+00	(2.42902909714029e+01dB,6.08715430434941e+01°)
2.88403150312660e+00	(2.44001380524707e+01dB,5.97654482918373e+01°)
2.95120922666638e+00	(2.45063928809895e+01dB,5.86700201914328e+01°)
3.01995172040201e+00	(2.46091300874091e+01dB,5.75856383935424e+01°)
3.09029543251359e+00	(2.47084255732160e+01dB,5.65126580827558e+01°)
3.16227766016837e+00	(2.48043563019277e+01dB,5.54514100409725e+01°)
3.23593656929628e+00	(2.48970000954025e+01dB,5.44022007958863e+01°)
3.31131121482591e+00	(2.49864354362366e+01dB,5.33653128491976e+01°)
3.38844156139202e+00	(2.50727412769544e+01dB,5.23410049797527e+01°)
3.46736850452531e+00	(2.51559968567099e+01dB,5.13295126149126e+01°)
3.54813389233575e+00	(2.52362815259202e+01dB,5.03310482656854e+01°)
3.63078054770101e+00	(2.53136745793623e+01dB,4.93458020189644e+01°)
3.71535229097172e+00	(2.53882550980507e+01dB,4.83739420814518e+01°)
3.80189396320560e+00	(2.54601018001592e+01dB,4.74156153695107e+01°)
3.89045144994280e+00	(2.55292929011869e+01dB,4.64709481389754e+01°)
3.98107170553496e+00	(2.55959059834841e+01dB,4.55400466495120e+01°)
4.07380277804112e+00	(2.56600178751392e+01dB,4.46229978581806e+01°)
4.16869383470335e+00	(2.57217045382439e+01dB,4.37198701368200e+01°)
4.26579518801592e+00	(2.57810409664139e+01dB,4.28307140083107e+01°)
4.36515832240165e+00	(2.58381010914348e+01dB,4.19555628970934e+01°)
4.46683592150962e+00	(2.58929576988291e+01dB,4.10944338893412e+01°)
4.57088189614874e+00	(2.59456823521310e+01dB,4.02473284988698e+01°)
4.67735141287197e+00	(2.59963453255701e+01dB,3.94142334343805e+01°)
4.78630092322637e+00	(2.60450155448807e+01dB,3.85951213652434e+01°)
4.89778819368445e+00	(2.60917605359008e+01dB,3.77899516819403e+01°)
5.01187233627271e+00	(2.61366463806133e+01dB,3.69986712483349e+01°)
5.12861383991364e+00	(2.61797376802574e+01dB,3.62212151434741e+01°)
5.24807460249771e+00	(2.62210975251505e+01dB,3.54575073900714e+01°)
5.37031796370252e+00	(2.62607874708192e+01dB,3.47074616678589e+01°)
5.49540873857623e+00	(2.62988675200782e+01dB,3.39709820098039e+01°)
5.62341325190348e+00	(2.63353961106190e+01dB,3.32479634801901e+01°)
5.75439937337156e+00	(2.63704301077966e+01dB,3.25382928321612e+01°)
5.88843655355588e+00	(2.64040248021768e+01dB,3.18418491449464e+01°)
6.02559586074356e+00	(2.64362339114970e+01dB,3.11585044387413e+01°)
6.16595001861481e+00	(2.64671095866808e+01dB,3.04881242674418e+01°)
6.30957344480192e+00	(2.64967024215476e+01dB,2.98305682881366e+01°)
6.45654229034654e+00	(2.65250614658850e+01dB,2.91856908073699e+01°)
6.60693448007594e+00	(2.65522342415552e+01dB,2.85533413039683e+01°)
6.76082975391980e+00	(2.65782667613402e+01dB,2.79333649282108e+01°)
6.91830970918935e+00	(2.66032035502053e+01dB,2.73256029775950e+01°)
7.07945784384136e+00	(2.66270876687308e+01dB,2.67298933494532e+01°)
7.24435960074988e+00	(2.66499607384226e+01dB,2.61460709704846e+01°)
7.41310241300916e+00	(2.66718629686833e+01dB,2.55739682036342e+01°)
7.58577575029182e+00	(2.66928331851694e+01dB,2.50134152332832e+01°)
7.76247116628690e+00	(2.67129088593640e+01dB,2.44642404282389e+01°)
7.94328234724279e+00	(2.67321261391402e+01dB,2.39262706840611e+01°)
8.12830516164097e+00	(2.67505198801108e+01dB,2.33993317449419e+01°)
8.31763771102669e+00	(2.67681236776425e+01dB,2.28832485056016e+01°)
8.51138038202374e+00	(2.67849698993182e+01dB,2.23778452941975e+01°)
8.70963589956078e+00	(2.68010897177422e+01dB,2.18829461368421e+01°)
8.91250938133743e+00	(2.68165131435375e+01dB,2.13983750042837e+01°)
9.12010839355907e+00	(2.68312690584165e+01dB,2.09239560415898e+01°)
9.33254300796988e+00	(2.68453852482227e+01dB,2.04595137816562e+01°)
9.54992586021433e+00	(2.68588884358372e+01dB,2.00048733430350e+01°)
9.77237220955808e+00	(2.68718043138596e+01dB,1.95598606128669e+01°)
9.99999999999997e+00	(2.68841575769891e+01dB,1.91243024157375e+01°)
1.02329299228075e+01	(2.68959719540506e+01dB,1.86980266690087e+01°)
1.04712854805090e+01	(2.69072702395605e+01dB,1.82808625253491e+01°)
1.07151930523760e+01	(2.69180743248259e+01dB,1.78726405032304e+01°)
1.09647819614318e+01	(2.69284052285064e+01dB,1.74731926057267e+01°)
1.12201845430196e+01	(2.69382831265956e+01dB,1.70823524287083e+01°)
1.14815362149688e+01	(2.69477273818056e+01dB,1.66999552586090e+01°)
1.17489755493953e+01	(2.69567565723022e+01dB,1.63258381606077e+01°)
1.20226443461741e+01	(2.69653885197810e+01dB,1.59598400576534e+01°)
1.23026877081238e+01	(2.69736403168821e+01dB,1.56018018010398e+01°)
1.25892541179416e+01	(2.69815283538840e+01dB,1.52515662328410e+01°)
1.28824955169313e+01	(2.69890683447126e+01dB,1.49089782408124e+01°)
1.31825673855640e+01	(2.69962753522269e+01dB,1.45738848064244e+01°)
1.34896288259165e+01	(2.70031638128038e+01dB,1.42461350460054e+01°)
1.38038426460288e+01	(2.70097475601846e+01dB,1.39255802460096e+01°)
1.41253754462275e+01	(2.70160398486244e+01dB,1.36120738923178e+01°)
1.44543977074592e+01	(2.70220533753215e+01dB,1.33054716944063e+01°)
1.47910838816820e+01	(2.70278003021379e+01dB,1.30056316043124e+01°)
1.51356124843620e+01	(2.70332922766323e+01dB,1.27124138311298e+01°)
1.54881661891248e+01	(2.70385404523854e+01dB,1.24256808512192e+01°)
1.58489319246111e+01	(2.70435555086622e+01dB,1.21452974143849e+01°)
1.62181009735892e+01	(2.70483476693938e+01dB,1.18711305464193e+01°)
1.65958690743755e+01	(2.70529267215141e+01dB,1.16030495482759e+01°)
1.69824365246174e+01	(2.70573020326373e+01dB,1.13409259921132e+01°)
1.73780082874937e+01	(2.70614825681227e+01dB,1.10846337145176e+01°)
1.77827941003892e+01	(2.70654769075290e+01dB,1.08340488069730e+01°)
1.81970085860998e+01	(2.70692932604355e+01dB,1.05890496041788e+01°)
1.86208713666286e+01	(2.70729394817234e+01dB,1.03495166698531e+01°)
1.90546071796324e+01	(2.70764230862596e+01dB,1.01153327808191e+01°)
1.94984459975804e+01	(2.70797512630365e+01dB,9.88638290911201e+00°)
1.99526231496887e+01	(2.70829308887731e+01dB,9.66255420248756e+00°)
2.04173794466952e+01	(2.70859685409966e+01dB,9.44373596349407e+00°)
2.08929613085403e+01	(2.70888705106186e+01dB,9.22981962715075e+00°)
2.13796208950222e+01	(2.70916428140189e+01dB,9.02069873745060e+00°)
2.18776162394954e+01	(2.70942912046573e+01dB,8.81626892285234e+00°)
2.23872113856833e+01	(2.70968211842291e+01dB,8.61642787074834e+00°)
2.29086765276776e+01	(2.70992380133652e+01dB,8.42107530119564e+00°)
2.34422881531991e+01	(2.71015467219237e+01dB,8.23011293990003e+00°)
2.39883291901948e+01	(2.71037521188551e+01dB,8.04344449051369e+00°)
2.45470891568502e+01	(2.71058588016577e+01dB,7.86097560653613e+00°)
2.51188643150957e+01	(2.71078711654769e+01dB,7.68261386264147e+00°)
2.57039578276885e+01	(2.71097934118107e+01dB,7.50826872574250e+00°)
2.63026799189537e+01	(2.71116295568563e+01dB,7.33785152565864e+00°)
2.69153480392690e+01	(2.71133834395236e+01dB,7.17127542564883e+00°)
2.75422870333815e+01	(2.71150587291157e+01dB,7.00845539275573e+00°)
2.81838293126444e+01	(2.71166589326846e+01dB,6.84930816797970e+00°)
2.88403150312659e+01	(2.71181874020745e+01dB,6.69375223649638e+00°)
2.95120922666637e+01	(2.71196473406858e+01dB,6.54170779778756e+00°)
3.01995172040200e+01	(2.71210418099441e+01dB,6.39309673582748e+00°)
3.09029543251358e+01	(2.71223737354954e+01dB,6.24784258938901e+00°)
3.16227766016837e+01	(2.71236459131417e+01dB,6.10587052238565e+00°)
3.23593656929627e+01	(2.71248610145284e+01dB,5.96710729443528e+00°)
3.31131121482590e+01	(2.71260215925823e+01dB,5.83148123155076e+00°)
3.38844156139201e+01	(2.71271300867236e+01dB,5.69892219705622e+00°)
3.46736850452530e+01	(2.71281888278519e+01dB,5.56936156272172e+00°)
3.54813389233574e+01	(2.71292000431194e+01dB,5.44273218019220e+00°)
3.63078054770100e+01	(2.71301658604974e+01dB,5.31896835259487e+00°)
3.71535229097171e+01	(2.71310883131510e+01dB,5.19800580657345e+00°)
3.80189396320559e+01	(2.71319693436172e+01dB,5.07978166450070e+00°)
3.89045144994279e+01	(2.71328108078096e+01dB,4.96423441708033e+00°)
3.98107170553495e+01	(2.71336144788435e+01dB,4.85130389629333e+00°)
4.07380277804111e+01	(2.71343820507039e+01dB,4.74093124865064e+00°)
4.16869383470333e+01	(2.71351151417403e+01dB,4.63305890881611e+00°)
4.26579518801591e+01	(2.71358152980268e+01dB,4.52763057361475e+00°)
4.36515832240164e+01	(2.71364839965534e+01dB,4.42459117637672e+00°)
4.46683592150961e+01	(2.71371226483036e+01dB,4.32388686169885e+00°)
4.57088189614873e+01	(2.71377326011785e+01dB,4.22546496052821e+00°)
4.67735141287196e+01	(2.71383151427934e+01dB,4.12927396572230e+00°)
4.78630092322636e+01	(2.71388715031719e+01dB,4.03526350789255e+00°)
4.89778819368444e+01	(2.71394028572904e+01dB,3.94338433172240e+00°)
5.01187233627270e+01	(2.71399103275383e+01dB,3.85358827265396e+00°)
5.12861383991362e+01	(2.71403949860538e+01dB,3.76582823392536e+00°)
5.24807460249770e+01	(2.71408578569658e+01dB,3.68005816407903e+00°)
5.37031796370250e+01	(2.71412999185303e+01dB,3.59623303478546e+00°)
5.49540873857622e+01	(2.71417221051760e+01dB,3.51430881911479e+00°)
5.62341325190346e+01	(2.71421253094570e+01dB,3.43424247016751e+00°)
5.75439937337154e+01	(2.71425103839278e+01dB,3.35599190011647e+00°)
5.88843655355586e+01	(2.71428781429217e+01dB,3.27951595959951e+00°)
6.02559586074355e+01	(2.71432293642581e+01dB,3.20477441753494e+00°)
6.16595001861479e+01	(2.71435647908775e+01dB,3.13172794129007e+00°)
6.30957344480190e+01	(2.71438851323982e+01dB,3.06033807722925e+00°)
6.45654229034652e+01	(2.71441910666040e+01dB,2.99056723165892e+00°)
6.60693448007593e+01	(2.71444832408686e+01dB,2.92237865209348e+00°)
6.76082975391978e+01	(2.71447622735140e+01dB,2.85573640893539e+00°)
6.91830970918933e+01	(2.71450287551154e+01dB,2.79060537748435e+00°)
7.07945784384134e+01	(2.71452832497344e+01dB,2.72695122031808e+00°)
7.24435960074986e+01	(2.71455262961137e+01dB,2.66474037000826e+00°)
7.41310241300914e+01	(2.71457584088093e+01dB,2.60394001220631e+00°)
7.58577575029180e+01	(2.71459800792651e+01dB,2.54451806903771e+00°)
7.76247116628688e+01	(2.71461917768583e+01dB,2.48644318287264e+00°)
7.94328234724277e+01	(2.71463939498860e+01dB,2.42968470038944e+00°)
8.12830516164095e+01	(2.71465870265048e+01dB,2.37421265699533e+00°)
8.31763771102667e+01	(2.71467714156366e+01dB,2.31999776154582e+00°)
8.51138038202372e+01	(2.71469475078300e+01dB,2.26701138139616e+00°)
8.70963589956076e+01	(2.71471156760865e+01dB,2.21522552775229e+00°)
8.91250938133741e+01	(2.71472762766433e+01dB,2.16461284133788e+00°)
9.12010839355905e+01	(2.71474296497255e+01dB,2.11514657834924e+00°)
9.33254300796986e+01	(2.71475761202710e+01dB,2.06680059671142e+00°)
9.54992586021431e+01	(2.71477159986046e+01dB,2.01954934264013e+00°)
9.77237220955805e+01	(2.71478495811014e+01dB,1.97336783745079e+00°)
9.99999999999995e+01	(2.71479771508158e+01dB,1.92823166468822e+00°)
1.02329299228075e+02	(2.71480989780628e+01dB,1.88411695750278e+00°)
1.04712854805089e+02	(2.71482153210151e+01dB,1.84100038630696e+00°)
1.07151930523760e+02	(2.71483264262201e+01dB,1.79885914669718e+00°)
1.09647819614318e+02	(2.71484325291452e+01dB,1.75767094763070e+00°)
1.12201845430196e+02	(2.71485338546635e+01dB,1.71741399985483e+00°)
1.14815362149688e+02	(2.71486306175268e+01dB,1.67806700459306e+00°)
1.17489755493952e+02	(2.71487230228268e+01dB,1.63960914247634e+00°)
1.20226443461741e+02	(2.71488112664253e+01dB,1.60202006269213e+00°)
1.23026877081237e+02	(2.71488955353713e+01dB,1.56527987240666e+00°)
1.25892541179416e+02	(2.71489760082919e+01dB,1.52936912637523e+00°)
1.28824955169313e+02	(2.71490528557687e+01dB,1.49426881681832e+00°)
1.31825673855640e+02	(2.71491262407144e+01dB,1.45996036348035e+00°)
1.34896288259165e+02	(2.71491963186951e+01dB,1.42642560393516e+00°)
1.38038426460288e+02	(2.71492632382764e+01dB,1.39364678408572e+00°)
1.41253754462275e+02	(2.71493271413234e+01dB,1.36160654888394e+00°)
1.44543977074592e+02	(2.71493881633194e+01dB,1.33028793323559e+00°)
1.47910838816820e+02	(2.71494464336405e+01dB,1.29967435312282e+00°)
1.51356124843620e+02	(2.71495020758260e+01dB,1.26974959691320e+00°)
1.54881661891247e+02	(2.71495552078475e+01dB,1.24049781685951e+00°)
1.58489319246110e+02	(2.71496059423619e+01dB,1.21190352078203e+00°)
1.62181009735892e+02	(2.71496543869400e+01dB,1.18395156394613e+00°)
1.65958690743755e+02	(2.71497006442980e+01dB,1.15662714110348e+00°)
1.69824365246173e+02	(2.71497448125218e+01dB,1.12991577871703e+00°)
1.73780082874936e+02	(2.71497869852616e+01dB,1.10380332735659e+00°)
1.77827941003891e+02	(2.71498272519441e+01dB,1.07827595425694e+00°)
1.81970085860997e+02	(2.71498656979539e+01dB,1.05332013604379e+00°)
1.86208713666286e+02	(2.71499024048166e+01dB,1.02892265162103e+00°)
1.90546071796323e+02	(2.71499374503645e+01dB,1.00507057521008e+00°)
1.94984459975803e+02	(2.71499709089204e+01dB,9.81751269541050e-01°)
1.99526231496887e+02	(2.71500028514293e+01dB,9.58952379206475e-01°)
2.04173794466952e+02	(2.71500333456336e+01dB,9.36661824143704e-01°)
2.08929613085403e+02	(2.71500624561967e+01dB,9.14867793273716e-01°)
2.13796208950222e+02	(2.71500902448525e+01dB,8.93558738272820e-01°)
2.18776162394954e+02	(2.71501167705352e+01dB,8.72723367485230e-01°)
2.23872113856832e+02	(2.71501420894910e+01dB,8.52350639967477e-01°)
2.29086765276776e+02	(2.71501662554217e+01dB,8.32429759664309e-01°)
2.34422881531991e+02	(2.71501893195689e+01dB,8.12950169712112e-01°)
2.39883291901947e+02	(2.71502113308524e+01dB,7.93901546868209e-01°)
2.45470891568501e+02	(2.71502323359493e+01dB,7.75273796058927e-01°)
2.51188643150956e+02	(2.71502523794093e+01dB,7.57057045056505e-01°)
2.57039578276885e+02	(2.71502715037391e+01dB,7.39241639256229e-01°)
2.63026799189536e+02	(2.71502897494973e+01dB,7.21818136585452e-01°)
2.69153480392690e+02	(2.71503071553819e+01dB,7.04777302512274e-01°)
2.75422870333815e+02	(2.71503237583061e+01dB,6.88110105167349e-01°)
2.81838293126443e+02	(2.71503395934840e+01dB,6.71807710570255e-01°)
2.88403150312659e+02	(2.71503546944992e+01dB,6.55861477962988e-01°)
2.95120922666637e+02	(2.71503690933807e+01dB,6.40262955239210e-01°)
3.01995172040200e+02	(2.71503828206662e+01dB,6.25003874482116e-01°)
3.09029543251357e+02	(2.71503959054704e+01dB,6.10076147587151e-01°)
3.16227766016836e+02	(2.71504083755429e+01dB,5.95471861987963e-01°)
3.23593656929626e+02	(2.71504202573362e+01dB,5.81183276471718e-01°)
3.31131121482589e+02	(2.71504315760485e+01dB,5.67202817086630e-01°)
3.38844156139200e+02	(2.71504423556855e+01dB,5.53523073132806e-01°)
3.46736850452529e+02	(2.71504526191142e+01dB,5.40136793244775e-01°)
3.54813389233573e+02	(2.71504623881004e+01dB,5.27036881554296e-01°)
3.63078054770099e+02	(2.71504716833637e+01dB,5.14216393935496e-01°)
3.71535229097170e+02	(2.71504805246224e+01dB,5.01668534333051e-01°)
3.80189396320558e+02	(2.71504889306284e+01dB,4.89386651163715e-01°)
3.89045144994278e+02	(2.71504969192088e+01dB,4.77364233797374e-01°)
3.98107170553494e+02	(2.71505045073116e+01dB,4.65594909112828e-01°)
4.07380277804110e+02	(2.71505117110310e+01dB,4.54072438121836e-01°)
4.16869383470332e+02	(2.71505185456450e+01dB,4.42790712672675e-01°)
4.26579518801589e+02	(2.71505250256524e+01dB,4.31743752210416e-01°)
4.36515832240163e+02	(2.71505311647984e+01dB,4.20925700617099e-01°)
4.46683592150960e+02	(2.71505369761071e+01dB,4.10330823108841e-01°)
4.57088189614872e+02	(2.71505424719018e+01dB,3.99953503203021e-01°)
4.67735141287195e+02	(2.71505476638444e+01dB,3.89788239742060e-01°)
4.78630092322635e+02	(2.71505525629462e+01dB,3.79829643985027e-01°)
4.89778819368442e+02	(2.71505571796015e+01dB,3.70072436752849e-01°)
5.01187233627268e+02	(2.71505615236053e+01dB,3.60511445634995e-01°)
5.12861383991361e+02	(2.71505656041709e+01dB,3.51141602252610e-01°)
5.24807460249769e+02	(2.71505694299574e+01dB,3.41957939573220e-01°)
5.37031796370249e+02	(2.71505730090802e+01dB,3.32955589284777e-01°)
5.49540873857620e+02	(2.71505763491369e+01dB,3.24129779216793e-01°)
5.62341325190345e+02	(2.71505794572128e+01dB,3.15475830816985e-01°)
5.75439937337152e+02	(2.71505823399041e+01dB,3.06989156673699e-01°)
5.88843655355584e+02	(2.71505850033294e+01dB,2.98665258088888e-01°)
6.02559586074353e+02	(2.71505874531401e+01dB,2.90499722698454e-01°)
6.16595001861477e+02	(2.71505896945394e+01dB,2.82488222137793e-01°)
6.30957344480188e+02	(2.71505917322858e+01dB,2.74626509751016e-01°)
6.45654229034650e+02	(2.71505935707031e+01dB,2.66910418346582e-01°)
6.60693448007591e+02	(2.71505952137019e+01dB,2.59335857991357e-01°)
6.76082975391976e+02	(2.71505966647715e+01dB,2.51898813850511e-01°)
6.91830970918931e+02	(2.71505979269957e+01dB,2.44595344062310e-01°)
7.07945784384132e+02	(2.71505990030612e+01dB,2.37421577656379e-01°)
7.24435960074984e+02	(2.71505998952570e+01dB,2.30373712508094e-01°)
7.41310241300911e+02	(2.71506006054864e+01dB,2.23448013327639e-01°)
7.58577575029177e+02	(2.71506011352658e+01dB,2.16640809690423e-01°)
