Freq.	V(out)
1.00000000000000e+00	(1.50175133233855e+01dB,1.12104051280709e+02°)
1.02329299228075e+00	(1.53127352329162e+01dB,1.11152256880849e+02°)
1.04712854805090e+00	(1.56046566524566e+01dB,1.10183565999341e+02°)
1.07151930523761e+00	(1.58931930468999e+01dB,1.09198388467730e+02°)
1.09647819614318e+00	(1.61782614867081e+01dB,1.08197156672165e+02°)
1.12201845430196e+00	(1.64597808475874e+01dB,1.07180325471107e+02°)
1.14815362149688e+00	(1.67376720134553e+01dB,1.06148372021846e+02°)
1.17489755493953e+00	(1.70118580817121e+01dB,1.05101795511301e+02°)
1.20226443461741e+00	(1.72822645696242e+01dB,1.04041116788243e+02°)
1.23026877081238e+00	(1.75488196205627e+01dB,1.02966877894445e+02°)
1.25892541179417e+00	(1.78114542087765e+01dB,1.01879641493341e+02°)
1.28824955169313e+00	(1.80701023413353e+01dB,1.00779990195162e+02°)
1.31825673855641e+00	(1.83247012559480e+01dB,9.96685257783173e+01°)
1.34896288259165e+00	(1.85751916131598e+01dB,9.85458683082922e+01°)
1.38038426460288e+00	(1.88215176815064e+01dB,9.74126551558948e+01°)
1.41253754462275e+00	(1.90636275143477e+01dB,9.62695399170987e+01°)
1.44543977074593e+00	(1.93014731168713e+01dB,9.51171912387595e+01°)
1.47910838816821e+00	(1.95350106020206e+01dB,9.39562915545133e+01°)
1.51356124843621e+00	(1.97642003340970e+01dB,9.27875357361224e+01°)
1.54881661891248e+00	(1.99890070586713e+01dB,9.16116296678031e+01°)
1.58489319246111e+00	(2.02094000179737e+01dB,9.04292887490418e+01°)
1.62181009735893e+00	(2.04253530504998e+01dB,8.92412363355172e+01°)
1.65958690743756e+00	(2.06368446741232e+01dB,8.80482021257109e+01°)
1.69824365246174e+00	(2.08438581518611e+01dB,8.68509205031454e+01°)
1.73780082874937e+00	(2.10463815397499e+01dB,8.56501288435636e+01°)
1.77827941003892e+00	(2.12444077163352e+01dB,8.44465657974269e+01°)
1.81970085860998e+00	(2.14379343934130e+01dB,8.32409695586175e+01°)
1.86208713666287e+00	(2.16269641080189e+01dB,8.20340761289035e+01°)
1.90546071796325e+00	(2.18115041955040e+01dB,8.08266175901459e+01°)
1.94984459975804e+00	(2.19915667440121e+01dB,7.96193203937805e+01°)
1.99526231496888e+00	(2.21671685306111e+01dB,7.84129036786492e+01°)
2.04173794466953e+00	(2.23383309395891e+01dB,7.72080776270677e+01°)
2.08929613085404e+00	(2.25050798635479e+01dB,7.60055418688530e+01°)
2.13796208950223e+00	(2.26674455881072e+01dB,7.48059839421583e+01°)
2.18776162394955e+00	(2.28254626609765e+01dB,7.36100778208352e+01°)
2.23872113856834e+00	(2.29791697466458e+01dB,7.24184825142408e+01°)
2.29086765276777e+00	(2.31286094675738e+01dB,7.12318407485365e+01°)
2.34422881531992e+00	(2.32738282332093e+01dB,7.00507777346687e+01°)
2.39883291901949e+00	(2.34148760581246e+01dB,6.88759000283054e+01°)
2.45470891568503e+00	(2.35518063704645e+01dB,6.77077944873481e+01°)
2.51188643150958e+00	(2.36846758122823e+01dB,6.65470273287821e+01°)
2.57039578276886e+00	(2.38135440329211e+01dB,6.53941432894461e+01°)
2.63026799189538e+00	(2.39384734770373e+01dB,6.42496648908600e+01°)
2.69153480392691e+00	(2.40595291685139e+01dB,6.31140918098169e+01°)
2.75422870333816e+00	(2.41767784917170e+01dB,6.19879003543026e+01°)
2.81838293126445e+00	(2.42902909713974e+01dB,6.08715430436348e+01°)
2.88403150312660e+00	(2.44001380524653e+01dB,5.97654482919809e+01°)
2.95120922666638e+00	(2.45063928809841e+01dB,5.86700201915792e+01°)
3.01995172040201e+00	(2.46091300874037e+01dB,5.75856383936917e+01°)
3.09029543251359e+00	(2.47084255732105e+01dB,5.65126580829080e+01°)
3.16227766016837e+00	(2.48043563019223e+01dB,5.54514100411271e+01°)
3.23593656929628e+00	(2.48970000953971e+01dB,5.44022007960441e+01°)
3.31131121482591e+00	(2.49864354362312e+01dB,5.33653128493584e+01°)
3.38844156139202e+00	(2.50727412769489e+01dB,5.23410049799164e+01°)
3.46736850452531e+00	(2.51559968567045e+01dB,5.13295126150792e+01°)
3.54813389233575e+00	(2.52362815259146e+01dB,5.03310482658552e+01°)
3.63078054770101e+00	(2.53136745793567e+01dB,4.93458020191372e+01°)
3.71535229097172e+00	(2.53882550980451e+01dB,4.83739420816278e+01°)
3.80189396320560e+00	(2.54601018001535e+01dB,4.74156153696902e+01°)
3.89045144994280e+00	(2.55292929011811e+01dB,4.64709481391580e+01°)
3.98107170553496e+00	(2.55959059834782e+01dB,4.55400466496980e+01°)
4.07380277804112e+00	(2.56600178751332e+01dB,4.46229978583700e+01°)
4.16869383470335e+00	(2.57217045382377e+01dB,4.37198701370127e+01°)
4.26579518801592e+00	(2.57810409664077e+01dB,4.28307140085072e+01°)
4.36515832240165e+00	(2.58381010914283e+01dB,4.19555628972934e+01°)
4.46683592150962e+00	(2.58929576988225e+01dB,4.10944338895449e+01°)
4.57088189614874e+00	(2.59456823521242e+01dB,4.02473284990771e+01°)
4.67735141287197e+00	(2.59963453255631e+01dB,3.94142334345917e+01°)
4.78630092322637e+00	(2.60450155448735e+01dB,3.85951213654587e+01°)
4.89778819368445e+00	(2.60917605358934e+01dB,3.77899516821594e+01°)
5.01187233627271e+00	(2.61366463806056e+01dB,3.69986712485581e+01°)
5.12861383991364e+00	(2.61797376802494e+01dB,3.62212151437015e+01°)
5.24807460249771e+00	(2.62210975251422e+01dB,3.54575073903031e+01°)
5.37031796370252e+00	(2.62607874708106e+01dB,3.47074616680949e+01°)
5.49540873857623e+00	(2.62988675200693e+01dB,3.39709820100444e+01°)
5.62341325190348e+00	(2.63353961106097e+01dB,3.32479634804352e+01°)
5.75439937337156e+00	(2.63704301077869e+01dB,3.25382928324110e+01°)
5.88843655355588e+00	(2.64040248021667e+01dB,3.18418491452010e+01°)
6.02559586074356e+00	(2.64362339114864e+01dB,3.11585044390008e+01°)
6.16595001861481e+00	(2.64671095866698e+01dB,3.04881242677065e+01°)
6.30957344480192e+00	(2.64967024215361e+01dB,2.98305682884063e+01°)
6.45654229034654e+00	(2.65250614658729e+01dB,2.91856908076449e+01°)
6.60693448007594e+00	(2.65522342415426e+01dB,2.85533413042488e+01°)
6.76082975391980e+00	(2.65782667613270e+01dB,2.79333649284969e+01°)
6.91830970918935e+00	(2.66032035501915e+01dB,2.73256029778867e+01°)
7.07945784384136e+00	(2.66270876687163e+01dB,2.67298933497509e+01°)
7.24435960074988e+00	(2.66499607384074e+01dB,2.61460709707882e+01°)
7.41310241300916e+00	(2.66718629686674e+01dB,2.55739682039440e+01°)
7.58577575029182e+00	(2.66928331851528e+01dB,2.50134152335992e+01°)
7.76247116628690e+00	(2.67129088593466e+01dB,2.44642404285614e+01°)
7.94328234724279e+00	(2.67321261391219e+01dB,2.39262706843902e+01°)
8.12830516164097e+00	(2.67505198800916e+01dB,2.33993317452778e+01°)
8.31763771102669e+00	(2.67681236776223e+01dB,2.28832485059446e+01°)
8.51138038202374e+00	(2.67849698992971e+01dB,2.23778452945475e+01°)
8.70963589956078e+00	(2.68010897177200e+01dB,2.18829461371993e+01°)
8.91250938133743e+00	(2.68165131435142e+01dB,2.13983750046486e+01°)
9.12010839355907e+00	(2.68312690583920e+01dB,2.09239560419623e+01°)
9.33254300796988e+00	(2.68453852481970e+01dB,2.04595137820365e+01°)
9.54992586021433e+00	(2.68588884358102e+01dB,2.00048733434234e+01°)
9.77237220955808e+00	(2.68718043138313e+01dB,1.95598606132636e+01°)
9.99999999999997e+00	(2.68841575769594e+01dB,1.91243024161427e+01°)
1.02329299228075e+01	(2.68959719540194e+01dB,1.86980266694225e+01°)
1.04712854805090e+01	(2.69072702395277e+01dB,1.82808625257718e+01°)
1.07151930523760e+01	(2.69180743247916e+01dB,1.78726405036622e+01°)
1.09647819614318e+01	(2.69284052284703e+01dB,1.74731926061678e+01°)
1.12201845430196e+01	(2.69382831265578e+01dB,1.70823524291590e+01°)
1.14815362149688e+01	(2.69477273817659e+01dB,1.66999552590697e+01°)
1.17489755493953e+01	(2.69567565722605e+01dB,1.63258381610783e+01°)
1.20226443461741e+01	(2.69653885197373e+01dB,1.59598400581343e+01°)
1.23026877081238e+01	(2.69736403168363e+01dB,1.56018018015313e+01°)
1.25892541179416e+01	(2.69815283538359e+01dB,1.52515662333433e+01°)
1.28824955169313e+01	(2.69890683446621e+01dB,1.49089782413257e+01°)
1.31825673855640e+01	(2.69962753521740e+01dB,1.45738848069492e+01°)
1.34896288259165e+01	(2.70031638127482e+01dB,1.42461350465417e+01°)
1.38038426460288e+01	(2.70097475601264e+01dB,1.39255802465579e+01°)
1.41253754462275e+01	(2.70160398485633e+01dB,1.36120738928783e+01°)
1.44543977074592e+01	(2.70220533752574e+01dB,1.33054716949793e+01°)
1.47910838816820e+01	(2.70278003020706e+01dB,1.30056316048982e+01°)
1.51356124843620e+01	(2.70332922765618e+01dB,1.27124138317287e+01°)
1.54881661891248e+01	(2.70385404523115e+01dB,1.24256808518315e+01°)
1.58489319246111e+01	(2.70435555085846e+01dB,1.21452974150110e+01°)
1.62181009735892e+01	(2.70483476693125e+01dB,1.18711305470595e+01°)
1.65958690743755e+01	(2.70529267214289e+01dB,1.16030495489305e+01°)
1.69824365246174e+01	(2.70573020325479e+01dB,1.13409259927827e+01°)
1.73780082874937e+01	(2.70614825680290e+01dB,1.10846337152021e+01°)
1.77827941003892e+01	(2.70654769074308e+01dB,1.08340488076731e+01°)
1.81970085860998e+01	(2.70692932603326e+01dB,1.05890496048947e+01°)
1.86208713666286e+01	(2.70729394816154e+01dB,1.03495166705853e+01°)
1.90546071796324e+01	(2.70764230861465e+01dB,1.01153327815680e+01°)
1.94984459975804e+01	(2.70797512629179e+01dB,9.88638290987796e+00°)
1.99526231496887e+01	(2.70829308886488e+01dB,9.66255420327103e+00°)
2.04173794466952e+01	(2.70859685408663e+01dB,9.44373596429539e+00°)
2.08929613085403e+01	(2.70888705104820e+01dB,9.22981962797038e+00°)
2.13796208950222e+01	(2.70916428138758e+01dB,9.02069873828900e+00°)
2.18776162394954e+01	(2.70942912045073e+01dB,8.81626892370996e+00°)
2.23872113856833e+01	(2.70968211840718e+01dB,8.61642787162562e+00°)
2.29086765276776e+01	(2.70992380132005e+01dB,8.42107530209313e+00°)
2.34422881531991e+01	(2.71015467217511e+01dB,8.23011294081810e+00°)
2.39883291901948e+01	(2.71037521186742e+01dB,8.04344449145295e+00°)
2.45470891568502e+01	(2.71058588014682e+01dB,7.86097560749702e+00°)
2.51188643150957e+01	(2.71078711652782e+01dB,7.68261386362451e+00°)
2.57039578276885e+01	(2.71097934116025e+01dB,7.50826872674820e+00°)
2.63026799189537e+01	(2.71116295566383e+01dB,7.33785152668761e+00°)
2.69153480392690e+01	(2.71133834392951e+01dB,7.17127542670160e+00°)
2.75422870333815e+01	(2.71150587288763e+01dB,7.00845539383290e+00°)
2.81838293126444e+01	(2.71166589324338e+01dB,6.84930816908180e+00°)
2.88403150312659e+01	(2.71181874018117e+01dB,6.69375223762408e+00°)
2.95120922666637e+01	(2.71196473404106e+01dB,6.54170779894141e+00°)
3.01995172040200e+01	(2.71210418096558e+01dB,6.39309673700817e+00°)
3.09029543251358e+01	(2.71223737351933e+01dB,6.24784259059714e+00°)
3.16227766016837e+01	(2.71236459128252e+01dB,6.10587052362191e+00°)
3.23593656929627e+01	(2.71248610141969e+01dB,5.96710729570032e+00°)
3.31131121482590e+01	(2.71260215922350e+01dB,5.83148123284530e+00°)
3.38844156139201e+01	(2.71271300863598e+01dB,5.69892219838098e+00°)
3.46736850452530e+01	(2.71281888274709e+01dB,5.56936156407739e+00°)
3.54813389233574e+01	(2.71292000427203e+01dB,5.44273218157960e+00°)
3.63078054770100e+01	(2.71301658600793e+01dB,5.31896835401471e+00°)
3.71535229097171e+01	(2.71310883127130e+01dB,5.19800580802653e+00°)
3.80189396320559e+01	(2.71319693431585e+01dB,5.07978166598786e+00°)
3.89045144994279e+01	(2.71328108073291e+01dB,4.96423441860238e+00°)
3.98107170553495e+01	(2.71336144783403e+01dB,4.85130389785112e+00°)
4.07380277804111e+01	(2.71343820501768e+01dB,4.74093125024503e+00°)
4.16869383470333e+01	(2.71351151411882e+01dB,4.63305891044805e+00°)
4.26579518801591e+01	(2.71358152974485e+01dB,4.52763057528512e+00°)
4.36515832240164e+01	(2.71364839959478e+01dB,4.42459117808643e+00°)
4.46683592150961e+01	(2.71371226476693e+01dB,4.32388686344894e+00°)
4.57088189614873e+01	(2.71377326005141e+01dB,4.22546496231966e+00°)
4.67735141287196e+01	(2.71383151420976e+01dB,4.12927396755611e+00°)
4.78630092322636e+01	(2.71388715024431e+01dB,4.03526350976978e+00°)
4.89778819368444e+01	(2.71394028565272e+01dB,3.94338433364414e+00°)
5.01187233627270e+01	(2.71399103267390e+01dB,3.85358827462129e+00°)
5.12861383991362e+01	(2.71403949852167e+01dB,3.76582823593945e+00°)
5.24807460249770e+01	(2.71408578560890e+01dB,3.68005816614105e+00°)
5.37031796370250e+01	(2.71412999176121e+01dB,3.59623303689661e+00°)
5.49540873857622e+01	(2.71417221042144e+01dB,3.51430882127632e+00°)
5.62341325190346e+01	(2.71421253084500e+01dB,3.43424247238066e+00°)
5.75439937337154e+01	(2.71425103828732e+01dB,3.35599190238257e+00°)
5.88843655355586e+01	(2.71428781418171e+01dB,3.27951596191989e+00°)
6.02559586074355e+01	(2.71432293631014e+01dB,3.20477441991100e+00°)
6.16595001861479e+01	(2.71435647896662e+01dB,3.13172794372326e+00°)
6.30957344480190e+01	(2.71438851311296e+01dB,3.06033807972100e+00°)
6.45654229034652e+01	(2.71441910652755e+01dB,2.99056723421078e+00°)
6.60693448007593e+01	(2.71444832394773e+01dB,2.92237865470701e+00°)
6.76082975391978e+01	(2.71447622720571e+01dB,2.85573641161218e+00°)
6.91830970918933e+01	(2.71450287535897e+01dB,2.79060538022603e+00°)
7.07945784384134e+01	(2.71452832481366e+01dB,2.72695122312640e+00°)
7.24435960074986e+01	(2.71455262944405e+01dB,2.66474037288496e+00°)
7.41310241300914e+01	(2.71457584070571e+01dB,2.60394001515322e+00°)
7.58577575029180e+01	(2.71459800774302e+01dB,2.54451807205670e+00°)
7.76247116628688e+01	(2.71461917749367e+01dB,2.48644318596564e+00°)
7.94328234724277e+01	(2.71463939478738e+01dB,2.42968470355847e+00°)
8.12830516164095e+01	(2.71465870243975e+01dB,2.37421266024244e+00°)
8.31763771102667e+01	(2.71467714134298e+01dB,2.31999776487313e+00°)
8.51138038202372e+01	(2.71469475055192e+01dB,2.26701138480590e+00°)
8.70963589956076e+01	(2.71471156736667e+01dB,2.21522553124673e+00°)
8.91250938133741e+01	(2.71472762741092e+01dB,2.16461284491937e+00°)
9.12010839355905e+01	(2.71474296470719e+01dB,2.11514658202023e+00°)
9.33254300796986e+01	(2.71475761174922e+01dB,2.06680060047444e+00°)
9.54992586021431e+01	(2.71477159956947e+01dB,2.01954934649781e+00°)
9.77237220955805e+01	(2.71478495780542e+01dB,1.97336784140582e+00°)
9.99999999999995e+01	(2.71479771476248e+01dB,1.92823166874344e+00°)
1.02329299228075e+02	(2.71480989747213e+01dB,1.88411696166109e+00°)
1.04712854805089e+02	(2.71482153175160e+01dB,1.84100039057140e+00°)
1.07151930523760e+02	(2.71483264225560e+01dB,1.79885915107088e+00°)
1.09647819614318e+02	(2.71484325253083e+01dB,1.75767095211693e+00°)
1.12201845430196e+02	(2.71485338506456e+01dB,1.71741400445700e+00°)
1.14815362149688e+02	(2.71486306133194e+01dB,1.67806700931466e+00°)
1.17489755493952e+02	(2.71487230184210e+01dB,1.63960914732105e+00°)
1.20226443461741e+02	(2.71488112618117e+01dB,1.60202006766377e+00°)
1.23026877081237e+02	(2.71488955305402e+01dB,1.56527987750918e+00°)
1.25892541179416e+02	(2.71489760032330e+01dB,1.52936913161279e+00°)
1.28824955169313e+02	(2.71490528504713e+01dB,1.49426882219521e+00°)
1.31825673855640e+02	(2.71491262351671e+01dB,1.45996036900107e+00°)
1.34896288259165e+02	(2.71491963128863e+01dB,1.42642560960440e+00°)
1.38038426460288e+02	(2.71492632321937e+01dB,1.39364678990837e+00°)
1.41253754462275e+02	(2.71493271349540e+01dB,1.36160655486510e+00°)
1.44543977074592e+02	(2.71493881566497e+01dB,1.33028793938059e+00°)
1.47910838816820e+02	(2.71494464266563e+01dB,1.29967435943724e+00°)
1.51356124843620e+02	(2.71495020685126e+01dB,1.26974960340287e+00°)
1.54881661891247e+02	(2.71495552001893e+01dB,1.24049782353055e+00°)
1.58489319246110e+02	(2.71496059343427e+01dB,1.21190352764081e+00°)
1.62181009735892e+02	(2.71496543785428e+01dB,1.18395157099936e+00°)
1.65958690743755e+02	(2.71497006355050e+01dB,1.15662714835815e+00°)
1.69824365246173e+02	(2.71497448033142e+01dB,1.12991578618051e+00°)
1.73780082874936e+02	(2.71497869756200e+01dB,1.10380333503659e+00°)
1.77827941003891e+02	(2.71498272418481e+01dB,1.07827596216157e+00°)
1.81970085860997e+02	(2.71498656873821e+01dB,1.05332014418154e+00°)
1.86208713666286e+02	(2.71499023937465e+01dB,1.02892266000085e+00°)
1.90546071796323e+02	(2.71499374387726e+01dB,1.00507058384137e+00°)
1.94984459975803e+02	(2.71499708967822e+01dB,9.81751278433696e-01°)
1.99526231496887e+02	(2.71500028387190e+01dB,9.58952388370878e-01°)
2.04173794466952e+02	(2.71500333323243e+01dB,9.36661833590822e-01°)
2.08929613085403e+02	(2.71500624422602e+01dB,9.14867803015089e-01°)
2.13796208950222e+02	(2.71500902302592e+01dB,8.93558748320608e-01°)
2.18776162394954e+02	(2.71501167552541e+01dB,8.72723377852266e-01°)
2.23872113856832e+02	(2.71501420734898e+01dB,8.52350650667285e-01°)
2.29086765276776e+02	(2.71501662386665e+01dB,8.32429770711178e-01°)
2.34422881531991e+02	(2.71501893020242e+01dB,8.12950181121123e-01°)
2.39883291901947e+02	(2.71502113124810e+01dB,7.93901558655296e-01°)
2.45470891568501e+02	(2.71502323167121e+01dB,7.75273808240932e-01°)
2.51188643150956e+02	(2.71502523592657e+01dB,7.57057057651237e-01°)
2.57039578276885e+02	(2.71502714826464e+01dB,7.39241652282520e-01°)
2.63026799189536e+02	(2.71502897274108e+01dB,7.21818150063235e-01°)
2.69153480392690e+02	(2.71503071322548e+01dB,7.04777316462663e-01°)
2.75422870333815e+02	(2.71503237340893e+01dB,6.88110119612697e-01°)
2.81838293126443e+02	(2.71503395681263e+01dB,6.71807725534248e-01°)
2.88403150312659e+02	(2.71503546679468e+01dB,6.55861493470732e-01°)
2.95120922666637e+02	(2.71503690655774e+01dB,6.40262971317329e-01°)
3.01995172040200e+02	(2.71503827915531e+01dB,6.25003891158854e-01°)
3.09029543251357e+02	(2.71503958749859e+01dB,6.10076164892470e-01°)
3.16227766016836e+02	(2.71504083436224e+01dB,5.95471879953674e-01°)
3.23593656929626e+02	(2.71504202239120e+01dB,5.81183295131595e-01°)
3.31131121482589e+02	(2.71504315410499e+01dB,5.67202836476557e-01°)
3.38844156139200e+02	(2.71504423190384e+01dB,5.53523093290899e-01°)
3.46736850452529e+02	(2.71504525807410e+01dB,5.40136814211558e-01°)
3.54813389233573e+02	(2.71504623479199e+01dB,5.27036903372847e-01°)
3.63078054770099e+02	(2.71504716412908e+01dB,5.14216416651632e-01°)
3.71535229097170e+02	(2.71504804805680e+01dB,5.01668557995505e-01°)
3.80189396320558e+02	(2.71504888844993e+01dB,4.89386675824349e-01°)
3.89045144994278e+02	(2.71504968709074e+01dB,4.77364259511389e-01°)
3.98107170553494e+02	(2.71505044567358e+01dB,4.65594935938990e-01°)
4.07380277804110e+02	(2.71505116580737e+01dB,4.54072466122718e-01°)
4.16869383470332e+02	(2.71505184901942e+01dB,4.42790741914938e-01°)
4.26579518801589e+02	(2.71505249675909e+01dB,4.31743782765079e-01°)
4.36515832240163e+02	(2.71505311040033e+01dB,4.20925732559833e-01°)
4.46683592150960e+02	(2.71505369124499e+01dB,4.10330856520306e-01°)
4.57088189614872e+02	(2.71505424052479e+01dB,3.99953538169204e-01°)
4.67735141287195e+02	(2.71505475940529e+01dB,3.89788276354649e-01°)
4.78630092322635e+02	(2.71505524898697e+01dB,3.79829682341808e-01°)
4.89778819368442e+02	(2.71505571030855e+01dB,3.70072476958120e-01°)
5.01187233627268e+02	(2.71505614434881e+01dB,3.60511487800040e-01°)
5.12861383991361e+02	(2.71505655202834e+01dB,3.51141646496153e-01°)
5.24807460249769e+02	(2.71505693421225e+01dB,3.41957986021991e-01°)
5.37031796370249e+02	(2.71505729171123e+01dB,3.32955638074032e-01°)
5.49540873857620e+02	(2.71505762528420e+01dB,3.24129830490922e-01°)
5.62341325190345e+02	(2.71505793563875e+01dB,3.15475884730153e-01°)
5.75439937337152e+02	(2.71505822343358e+01dB,3.06989213390531e-01°)
5.88843655355584e+02	(2.71505848927954e+01dB,2.98665317785205e-01°)
6.02559586074353e+02	(2.71505873374073e+01dB,2.90499785562054e-01°)
6.16595001861477e+02	(2.71505895733639e+01dB,2.82488288369281e-01°)
6.30957344480188e+02	(2.71505916054121e+01dB,2.74626579564709e-01°)
6.45654229034650e+02	(2.71505934378639e+01dB,2.66910491971478e-01°)
6.60693448007591e+02	(2.71505950746175e+01dB,2.59335935672165e-01°)
6.76082975391976e+02	(2.71505965191490e+01dB,2.51898895848750e-01°)
6.91830970918931e+02	(2.71505977745285e+01dB,2.44595430657483e-01°)
7.07945784384132e+02	(2.71505988434287e+01dB,2.37421669147251e-01°)
7.24435960074984e+02	(2.71505997281233e+01dB,2.30373809214036e-01°)
7.41310241300911e+02	(2.71506004305003e+01dB,2.23448115590092e-01°)
7.58577575029177e+02	(2.71506009520594e+01dB,2.16640917874422e-01°)
