Freq.	V(out)
1.00000000000000e+00	(1.05288577185692e+02dB,-4.97509713034630e+01°)
1.02329299228075e+00	(1.05141390462402e+02dB,-4.94915423852459e+01°)
1.04712854805090e+00	(1.04995366602170e+02dB,-4.92192223289056e+01°)
1.07151930523761e+00	(1.04850563300876e+02dB,-4.89342194756301e+01°)
1.09647819614318e+00	(1.04707037440250e+02dB,-4.86367541217884e+01°)
1.12201845430196e+00	(1.04564845007393e+02dB,-4.83270585564749e+01°)
1.14815362149688e+00	(1.04424041010595e+02dB,-4.80053770697258e+01°)
1.17489755493953e+00	(1.04284679391751e+02dB,-4.76719659277391e+01°)
1.20226443461741e+00	(1.04146812935631e+02dB,-4.73270933120909e+01°)
1.23026877081238e+00	(1.04010493176598e+02dB,-4.69710392197847e+01°)
1.25892541179417e+00	(1.03875770303249e+02dB,-4.66040953215219e+01°)
1.28824955169313e+00	(1.03742693061319e+02dB,-4.62265647753184e+01°)
1.31825673855641e+00	(1.03611308655571e+02dB,-4.58387619936246e+01°)
1.34896288259165e+00	(1.03481662651407e+02dB,-4.54410123618286e+01°)
1.38038426460288e+00	(1.03353798876650e+02dB,-4.50336519068363e+01°)
1.41253754462275e+00	(1.03227759324309e+02dB,-4.46170269146103e+01°)
1.44543977074593e+00	(1.03103584057089e+02dB,-4.41914934962330e+01°)
1.47910838816821e+00	(1.02981311114351e+02dB,-4.37574171024158e+01°)
1.51356124843621e+00	(1.02860976422319e+02dB,-4.33151719868417e+01°)
1.54881661891248e+00	(1.02742613708188e+02dB,-4.28651406194976e+01°)
1.58489319246111e+00	(1.02626254419101e+02dB,-4.24077130515046e+01°)
1.62181009735893e+00	(1.02511927646511e+02dB,-4.19432862335085e+01°)
1.65958690743756e+00	(1.02399660056783e+02dB,-4.14722632903082e+01°)
1.69824365246174e+00	(1.02289475828652e+02dB,-4.09950527548931e+01°)
1.73780082874937e+00	(1.02181396598234e+02dB,-4.05120677655366e+01°)
1.77827941003892e+00	(1.02075441412032e+02dB,-4.00237252300095e+01°)
1.81970085860998e+00	(1.01971626688626e+02dB,-3.95304449615192e+01°)
1.86208713666287e+00	(1.01869966189300e+02dB,-3.90326487912755e+01°)
1.90546071796325e+00	(1.01770470998176e+02dB,-3.85307596627956e+01°)
1.94984459975804e+00	(1.01673149511936e+02dB,-3.80252007135819e+01°)
1.99526231496888e+00	(1.01578007439426e+02dB,-3.75163943496819e+01°)
2.04173794466953e+00	(1.01485047811259e+02dB,-3.70047613189992e+01°)
2.08929613085404e+00	(1.01394270999417e+02dB,-3.64907197891851e+01°)
2.13796208950223e+00	(1.01305674746680e+02dB,-3.59746844358236e+01°)
2.18776162394955e+00	(1.01219254205801e+02dB,-3.54570655467378e+01°)
2.23872113856834e+00	(1.01135001988219e+02dB,-3.49382681478320e+01°)
2.29086765276777e+00	(1.01052908221776e+02dB,-3.44186911559098e+01°)
2.34422881531992e+00	(1.00972960617218e+02dB,-3.38987265633476e+01°)
2.39883291901949e+00	(1.00895144542811e+02dB,-3.33787586593827e+01°)
2.45470891568503e+00	(1.00819443106635e+02dB,-3.28591632923010e+01°)
2.51188643150958e+00	(1.00745837245924e+02dB,-3.23403071762167e+01°)
2.57039578276886e+00	(1.00674305822636e+02dB,-3.18225472459743e+01°)
2.63026799189538e+00	(1.00604825724791e+02dB,-3.13062300628839e+01°)
2.69153480392691e+00	(1.00537371972621e+02dB,-3.07916912737272e+01°)
2.75422870333816e+00	(1.00471917828904e+02dB,-3.02792551247351e+01°)
2.81838293126445e+00	(1.00408434912614e+02dB,-2.97692340319209e+01°)
2.88403150312660e+00	(1.00346893315338e+02dB,-2.92619282084690e+01°)
2.95120922666638e+00	(1.00287261719308e+02dB,-2.87576253494164e+01°)
3.01995172040201e+00	(1.00229507516786e+02dB,-2.82566003734338e+01°)
3.09029543251359e+00	(1.00173596929628e+02dB,-2.77591152209862e+01°)
3.16227766016837e+00	(1.00119495128665e+02dB,-2.72654187077497e+01°)
3.23593656929628e+00	(1.00067166352071e+02dB,-2.67757464317507e+01°)
3.31131121482591e+00	(1.00016574022183e+02dB,-2.62903207323883e+01°)
3.38844156139202e+00	(9.99676808601345e+01dB,-2.58093506991624e+01°)
3.46736850452531e+00	(9.99204489978776e+01dB,-2.53330322275622e+01°)
3.54813389233575e+00	(9.98748400869850e+01dB,-2.48615481195967e+01°)
3.63078054770101e+00	(9.98308154040356e+01dB,-2.43950682259341e+01°)
3.71535229097172e+00	(9.97883359519017e+01dB,-2.39337496267659e+01°)
3.80189396320560e+00	(9.97473625569513e+01dB,-2.34777368482134e+01°)
3.89045144994280e+00	(9.97078559616750e+01dB,-2.30271621111864e+01°)
3.98107170553496e+00	(9.96697769126540e+01dB,-2.25821456093874e+01°)
4.07380277804112e+00	(9.96330862436323e+01dB,-2.21427958134151e+01°)
4.16869383470335e+00	(9.95977449536161e+01dB,-2.17092097976807e+01°)
4.26579518801592e+00	(9.95637142799305e+01dB,-2.12814735871593e+01°)
4.36515832240165e+00	(9.95309557662294e+01dB,-2.08596625209044e+01°)
4.46683592150962e+00	(9.94994313253563e+01dB,-2.04438416295181e+01°)
4.57088189614874e+00	(9.94691032972170e+01dB,-2.00340660237084e+01°)
4.67735141287197e+00	(9.94399345017266e+01dB,-1.96303812914380e+01°)
4.78630092322637e+00	(9.94118882868127e+01dB,-1.92328239011133e+01°)
4.89778819368445e+00	(9.93849285718026e+01dB,-1.88414216085044e+01°)
5.01187233627271e+00	(9.93590198860784e+01dB,-1.84561938653190e+01°)
5.12861383991364e+00	(9.93341274034562e+01dB,-1.80771522273772e+01°)
5.24807460249771e+00	(9.93102169721772e+01dB,-1.77043007606328e+01°)
5.37031796370252e+00	(9.92872551409065e+01dB,-1.73376364433743e+01°)
5.49540873857623e+00	(9.92652091808654e+01dB,-1.69771495631424e+01°)
5.62341325190348e+00	(9.92440471043413e+01dB,-1.66228241070589e+01°)
5.75439937337156e+00	(9.92237376795930e+01dB,-1.62746381443911e+01°)
5.88843655355588e+00	(9.92042504426763e+01dB,-1.59325642003465e+01°)
6.02559586074356e+00	(9.91855557061469e+01dB,-1.55965696202611e+01°)
6.16595001861481e+00	(9.91676245649589e+01dB,-1.52666169233947e+01°)
6.30957344480192e+00	(9.91504288997678e+01dB,-1.49426641457840e+01°)
6.45654229034654e+00	(9.91339413777580e+01dB,-1.46246651716145e+01°)
6.60693448007594e+00	(9.91181354511928e+01dB,-1.43125700527807e+01°)
6.76082975391980e+00	(9.91029853541831e+01dB,-1.40063253162970e+01°)
6.91830970918935e+00	(9.90884660972802e+01dB,-1.37058742594218e+01°)
7.07945784384136e+00	(9.90745534605912e+01dB,-1.34111572323600e+01°)
7.24435960074988e+00	(9.90612239853402e+01dB,-1.31221119085268e+01°)
7.41310241300916e+00	(9.90484549640150e+01dB,-1.28386735423886e+01°)
7.58577575029182e+00	(9.90362244294763e+01dB,-1.25607752150091e+01°)
7.76247116628690e+00	(9.90245111427652e+01dB,-1.22883480674232e+01°)
7.94328234724279e+00	(9.90132945802453e+01dB,-1.20213215220395e+01°)
8.12830516164097e+00	(9.90025549197725e+01dB,-1.17596234923129e+01°)
8.31763771102669e+00	(9.89922730262326e+01dB,-1.15031805809412e+01°)
8.51138038202374e+00	(9.89824304365710e+01dB,-1.12519182668968e+01°)
8.70963589956078e+00	(9.89730093442163e+01dB,-1.10057610816035e+01°)
8.91250938133743e+00	(9.89639925832800e+01dB,-1.07646327745930e+01°)
9.12010839355907e+00	(9.89553636123679e+01dB,-1.05284564690202e+01°)
9.33254300796988e+00	(9.89471064981958e+01dB,-1.02971548073443e+01°)
9.54992586021433e+00	(9.89392058990508e+01dB,-1.00706500876210e+01°)
9.77237220955808e+00	(9.89316470483217e+01dB,-9.84886439072677e+00°)
9.99999999999997e+00	(9.89244157377271e+01dB,-9.63171969891058e+00°)
1.02329299228075e+01	(9.89174983008469e+01dB,-9.41913800605808e+00°)
1.04712854805090e+01	(9.89108815966230e+01dB,-9.21104142003431e+00°)
1.07151930523760e+01	(9.89045529930113e+01dB,-9.00735225748214e+00°)
1.09647819614318e+01	(9.88985003507875e+01dB,-8.80799313143651e+00°)
1.12201845430196e+01	(9.88927120075610e+01dB,-8.61288703211175e+00°)
1.14815362149688e+01	(9.88871767620464e+01dB,-8.42195740122248e+00°)
1.17489755493953e+01	(9.88818838585361e+01dB,-8.23512820016935e+00°)
1.20226443461741e+01	(9.88768229717062e+01dB,-8.05232397242414e+00°)
1.23026877081238e+01	(9.88719841916756e+01dB,-7.87346990043098e+00°)
1.25892541179416e+01	(9.88673580094969e+01dB,-7.69849185734554e+00°)
1.28824955169313e+01	(9.88629353026617e+01dB,-7.52731645389454e+00°)
1.31825673855640e+01	(9.88587073213948e+01dB,-7.35987108065792e+00°)
1.34896288259165e+01	(9.88546656749214e+01dB,-7.19608394603699e+00°)
1.38038426460288e+01	(9.88508023182785e+01dB,-7.03588411018889e+00°)
1.41253754462275e+01	(9.88471095394265e+01dB,-6.87920151516332e+00°)
1.44543977074592e+01	(9.88435799466688e+01dB,-6.72596701148759e+00°)
1.47910838816820e+01	(9.88402064565550e+01dB,-6.57611238144587e+00°)
1.51356124843620e+01	(9.88369822821227e+01dB,-6.42957035924768e+00°)
1.54881661891248e+01	(9.88339009212703e+01dB,-6.28627464831131e+00°)
1.58489319246111e+01	(9.88309561459202e+01dB,-6.14615993585765e+00°)
1.62181009735892e+01	(9.88281419909363e+01dB,-6.00916190498935e+00°)
1.65958690743755e+01	(9.88254527442172e+01dB,-5.87521724445691e+00°)
1.69824365246174e+01	(9.88228829362356e+01dB,-5.74426365625806e+00°)
1.73780082874937e+01	(9.88204273305584e+01dB,-5.61623986124140e+00°)
1.77827941003892e+01	(9.88180809144065e+01dB,-5.49108560285409e+00°)
1.81970085860998e+01	(9.88158388896496e+01dB,-5.36874164919635e+00°)
1.86208713666286e+01	(9.88136966640663e+01dB,-5.24914979348887e+00°)
1.90546071796324e+01	(9.88116498429669e+01dB,-5.13225285309885e+00°)
1.94984459975804e+01	(9.88096942210404e+01dB,-5.01799466723239e+00°)
1.99526231496887e+01	(9.88078257745917e+01dB,-4.90632009341166e+00°)
2.04173794466952e+01	(9.88060406540765e+01dB,-4.79717500283500e+00°)
2.08929613085403e+01	(9.88043351767809e+01dB,-4.69050627471930e+00°)
2.13796208950222e+01	(9.88027058197951e+01dB,-4.58626178971764e+00°)
2.18776162394954e+01	(9.88011492136208e+01dB,-4.48439042249816e+00°)
2.23872113856833e+01	(9.87996621353932e+01dB,-4.38484203355938e+00°)
2.29086765276776e+01	(9.87982415028664e+01dB,-4.28756746036736e+00°)
2.34422881531991e+01	(9.87968843685452e+01dB,-4.19251850787073e+00°)
2.39883291901948e+01	(9.87955879138046e+01dB,-4.09964793847062e+00°)
2.45470891568502e+01	(9.87943494434984e+01dB,-4.00890946150270e+00°)
2.51188643150957e+01	(9.87931663807058e+01dB,-3.92025772228240e+00°)
2.57039578276885e+01	(9.87920362615893e+01dB,-3.83364829077432e+00°)
2.63026799189537e+01	(9.87909567307826e+01dB,-3.74903764993628e+00°)
2.69153480392690e+01	(9.87899255364300e+01dB,-3.66638318376648e+00°)
2.75422870333815e+01	(9.87889405260029e+01dB,-3.58564316512042e+00°)
2.81838293126444e+01	(9.87879996417919e+01dB,-3.50677674331665e+00°)
2.88403150312659e+01	(9.87871009169570e+01dB,-3.42974393158162e+00°)
2.95120922666637e+01	(9.87862424716249e+01dB,-3.35450559435618e+00°)
3.01995172040200e+01	(9.87854225089111e+01dB,-3.28102343450164e+00°)
3.09029543251358e+01	(9.87846393115556e+01dB,-3.20925998043430e+00°)
3.16227766016837e+01	(9.87838912383725e+01dB,-3.13917857320881e+00°)
3.23593656929627e+01	(9.87831767208745e+01dB,-3.07074335358248e+00°)
3.31131121482590e+01	(9.87824942600860e+01dB,-3.00391924907322e+00°)
3.38844156139201e+01	(9.87818424236836e+01dB,-2.93867196104753e+00°)
3.46736850452530e+01	(9.87812198429605e+01dB,-2.87496795183461e+00°)
3.54813389233574e+01	(9.87806252100139e+01dB,-2.81277443190412e+00°)
3.63078054770100e+01	(9.87800572750571e+01dB,-2.75205934711597e+00°)
3.71535229097171e+01	(9.87795148440338e+01dB,-2.69279136605085e+00°)
3.80189396320559e+01	(9.87789967759545e+01dB,-2.63493986744354e+00°)
3.89045144994279e+01	(9.87785019807143e+01dB,-2.57847492772690e+00°)
3.98107170553495e+01	(9.87780294168233e+01dB,-2.52336730869460e+00°)
4.07380277804111e+01	(9.87775780891920e+01dB,-2.46958844529761e+00°)
4.16869383470333e+01	(9.87771470471422e+01dB,-2.41711043357935e+00°)
4.26579518801591e+01	(9.87767353825031e+01dB,-2.36590601875767e+00°)
4.36515832240164e+01	(9.87763422275431e+01dB,-2.31594858346296e+00°)
4.46683592150961e+01	(9.87759667535358e+01dB,-2.26721213613665e+00°)
4.57088189614873e+01	(9.87756081685294e+01dB,-2.21967129959074e+00°)
4.67735141287196e+01	(9.87752657162511e+01dB,-2.17330129975089e+00°)
4.78630092322636e+01	(9.87749386739972e+01dB,-2.12807795455603e+00°)
4.89778819368444e+01	(9.87746263516893e+01dB,-2.08397766305630e+00°)
5.01187233627270e+01	(9.87743280900234e+01dB,-2.04097739467824e+00°)
5.12861383991362e+01	(9.87740432592363e+01dB,-1.99905467868015e+00°)
5.24807460249770e+01	(9.87737712578830e+01dB,-1.95818759379662e+00°)
5.37031796370250e+01	(9.87735115113922e+01dB,-1.91835475806395e+00°)
5.49540873857622e+01	(9.87732634710192e+01dB,-1.87953531884283e+00°)
5.62341325190346e+01	(9.87730266126534e+01dB,-1.84170894302888e+00°)
5.75439937337154e+01	(9.87728004357487e+01dB,-1.80485580745345e+00°)
5.88843655355586e+01	(9.87725844622319e+01dB,-1.76895658947698e+00°)
6.02559586074355e+01	(9.87723782354778e+01dB,-1.73399245777694e+00°)
6.16595001861479e+01	(9.87721813195312e+01dB,-1.69994506332596e+00°)
6.30957344480190e+01	(9.87719932979301e+01dB,-1.66679653056033e+00°)
6.45654229034652e+01	(9.87718137730174e+01dB,-1.63452944874286e+00°)
6.60693448007593e+01	(9.87716423650953e+01dB,-1.60312686351771e+00°)
6.76082975391978e+01	(9.87714787114763e+01dB,-1.57257226864735e+00°)
6.91830970918933e+01	(9.87713224659956e+01dB,-1.54284959794953e+00°)
7.07945784384134e+01	(9.87711732979603e+01dB,-1.51394321741300e+00°)
7.24435960074986e+01	(9.87710308917698e+01dB,-1.48583791750831e+00°)
7.41310241300914e+01	(9.87708949459913e+01dB,-1.45851890567406e+00°)
7.58577575029180e+01	(9.87707651729219e+01dB,-1.43197179899864e+00°)
7.76247116628688e+01	(9.87706412977919e+01dB,-1.40618261707482e+00°)
7.94328234724277e+01	(9.87705230583286e+01dB,-1.38113777504231e+00°)
8.12830516164095e+01	(9.87704102043704e+01dB,-1.35682407681158e+00°)
8.31763771102667e+01	(9.87703024967036e+01dB,-1.33322870845094e+00°)
8.51138038202372e+01	(9.87701997074374e+01dB,-1.31033923177570e+00°)
8.70963589956076e+01	(9.87701016188119e+01dB,-1.28814357808699e+00°)
8.91250938133741e+01	(9.87700080231548e+01dB,-1.26663004209975e+00°)
9.12010839355905e+01	(9.87699187221665e+01dB,-1.24578727603426e+00°)
9.33254300796986e+01	(9.87698335267314e+01dB,-1.22560428388264e+00°)
9.54992586021431e+01	(9.87697522563403e+01dB,-1.20607041583946e+00°)
9.77237220955805e+01	(9.87696747388671e+01dB,-1.18717536290153e+00°)
9.99999999999995e+01	(9.87696008100477e+01dB,-1.16890915162966e+00°)
1.02329299228075e+02	(9.87695303133653e+01dB,-1.15126213907712e+00°)
1.04712854805089e+02	(9.87694630992452e+01dB,-1.13422500787082e+00°)
1.07151930523760e+02	(9.87693990254926e+01dB,-1.11778876147074e+00°)
1.09647819614318e+02	(9.87693379562035e+01dB,-1.10194471956021e+00°)
1.12201845430196e+02	(9.87692797619985e+01dB,-1.08668451361858e+00°)
1.14815362149688e+02	(9.87692243195693e+01dB,-1.07200008263143e+00°)
1.17489755493952e+02	(9.87691715114144e+01dB,-1.05788366896535e+00°)
1.20226443461741e+02	(9.87691212256426e+01dB,-1.04432781438305e+00°)
1.23026877081237e+02	(9.87690733555785e+01dB,-1.03132535621906e+00°)
1.25892541179416e+02	(9.87690277999004e+01dB,-1.01886942370319e+00°)
1.28824955169313e+02	(9.87689844619590e+01dB,-1.00695343441975e+00°)
1.31825673855640e+02	(9.87689432499314e+01dB,-9.95571090931750e-01°)
1.34896288259165e+02	(9.87689040764355e+01dB,-9.84716377532195e-01°)
1.38038426460288e+02	(9.87688668584449e+01dB,-9.74383557153856e-01°)
1.41253754462275e+02	(9.87688315170823e+01dB,-9.64567168406534e-01°)
1.44543977074592e+02	(9.87687979773919e+01dB,-9.55262022771019e-01°)
1.47910838816820e+02	(9.87687661683463e+01dB,-9.46463201921561e-01°)
1.51356124843620e+02	(9.87687360223962e+01dB,-9.38166055187972e-01°)
1.54881661891247e+02	(9.87687074756627e+01dB,-9.30366197168082e-01°)
1.58489319246110e+02	(9.87686804677098e+01dB,-9.23059505465835e-01°)
1.62181009735892e+02	(9.87686549411329e+01dB,-9.16242118557969e-01°)
1.65958690743755e+02	(9.87686308419545e+01dB,-9.09910433825343e-01°)
1.69824365246173e+02	(9.87686081189937e+01dB,-9.04061105684419e-01°)
1.73780082874936e+02	(9.87685867240742e+01dB,-8.98691043873409e-01°)
1.77827941003891e+02	(9.87685666118623e+01dB,-8.93797411873561e-01°)
1.81970085860997e+02	(9.87685477397494e+01dB,-8.89377625445556e-01°)
1.86208713666286e+02	(9.87685300675550e+01dB,-8.85429351312249e-01°)
1.90546071796323e+02	(9.87685135579419e+01dB,-8.81950505979815e-01°)
1.94984459975803e+02	(9.87684981758248e+01dB,-8.78939254665907e-01°)
1.99526231496887e+02	(9.87684838886509e+01dB,-8.76394010383190e-01°)
2.04173794466952e+02	(9.87684706660412e+01dB,-8.74313433139829e-01°)
2.08929613085403e+02	(9.87684584800321e+01dB,-8.72696429275324e-01°)
2.13796208950222e+02	(9.87684473046878e+01dB,-8.71542150924103e-01°)
2.18776162394954e+02	(9.87684371163429e+01dB,-8.70849995616581e-01°)
2.23872113856832e+02	(9.87684278933831e+01dB,-8.70619605998845e-01°)
2.29086765276776e+02	(9.87684196162548e+01dB,-8.70850869694995e-01°)
2.34422881531991e+02	(9.87684122673649e+01dB,-8.71543919287303e-01°)
2.39883291901947e+02	(9.87684058310910e+01dB,-8.72699132440251e-01°)
2.45470891568501e+02	(9.87684002937803e+01dB,-8.74317132146818e-01°)
2.51188643150956e+02	(9.87683956436896e+01dB,-8.76398787110156e-01°)
2.57039578276885e+02	(9.87683918709402e+01dB,-8.78945212254574e-01°)
2.63026799189536e+02	(9.87683889674758e+01dB,-8.81957769369633e-01°)
2.69153480392690e+02	(9.87683869271358e+01dB,-8.85438067888455e-01°)
2.75422870333815e+02	(9.87683857455281e+01dB,-8.89387965798934e-01°)
2.81838293126443e+02	(9.87683854201604e+01dB,-8.93809570691929e-01°)
2.88403150312659e+02	(9.87683859502703e+01dB,-8.98705240935040e-01°)
2.95120922666637e+02	(9.87683873369518e+01dB,-9.04077586999725e-01°)
3.01995172040200e+02	(9.87683895831507e+01dB,-9.09929472910144e-01°)
3.09029543251357e+02	(9.87683926935087e+01dB,-9.16264017829413e-01°)
3.16227766016836e+02	(9.87683966746431e+01dB,-9.23084597806547e-01°)
3.23593656929626e+02	(9.87684015349169e+01dB,-9.30394847640374e-01°)
3.31131121482589e+02	(9.87684072844675e+01dB,-9.38198662883595e-01°)
3.38844156139200e+02	(9.87684139355436e+01dB,-9.46500202032628e-01°)
3.46736850452529e+02	(9.87684215021782e+01dB,-9.55303888799629e-01°)
3.54813389233573e+02	(9.87684300002272e+01dB,-9.64614414578065e-01°)
3.63078054770099e+02	(9.87684394476727e+01dB,-9.74436741046184e-01°)
3.71535229097170e+02	(9.87684498645205e+01dB,-9.84776102910307e-01°)
3.80189396320558e+02	(9.87684612725366e+01dB,-9.95638010801788e-01°)
3.89045144994278e+02	(9.87684736960819e+01dB,-1.00702825436608e+00°)
3.98107170553494e+02	(9.87684871611474e+01dB,-1.01895290542386e+00°)
4.07380277804110e+02	(9.87685016962650e+01dB,-1.03141832140609e+00°)
4.16869383470332e+02	(9.87685173319630e+01dB,-1.04443114884190e+00°)
4.26579518801589e+02	(9.87685341013648e+01dB,-1.05799832709432e+00°)
4.36515832240163e+02	(9.87685520397779e+01dB,-1.07212709220408e+00°)
4.46683592150960e+02	(9.87685711850440e+01dB,-1.08682498095101e+00°)
4.57088189614872e+02	(9.87685915775262e+01dB,-1.10209983504630e+00°)
4.67735141287195e+02	(9.87686132601178e+01dB,-1.11795980553113e+00°)
4.78630092322635e+02	(9.87686362786039e+01dB,-1.13441335735743e+00°)
4.89778819368442e+02	(9.87686606815736e+01dB,-1.15146927413524e+00°)
5.01187233627268e+02	(9.87686865202535e+01dB,-1.16913666305726e+00°)
5.12861383991361e+02	(9.87687138491277e+01dB,-1.18742496005280e+00°)
5.24807460249769e+02	(9.87687427257624e+01dB,-1.20634393511462e+00°)
5.37031796370249e+02	(9.87687732109566e+01dB,-1.22590369783090e+00°)
5.49540873857620e+02	(9.87688053688161e+01dB,-1.24611470309531e+00°)
5.62341325190345e+02	(9.87688392670167e+01dB,-1.26698775708812e+00°)
5.75439937337152e+02	(9.87688749768331e+01dB,-1.28853402339987e+00°)
5.88843655355584e+02	(9.87689125733101e+01dB,-1.31076502943479e+00°)
6.02559586074353e+02	(9.87689521354310e+01dB,-1.33369267298918e+00°)
6.16595001861477e+02	(9.87689937463977e+01dB,-1.35732922913116e+00°)
6.30957344480188e+02	(9.87690374935483e+01dB,-1.38168735722590e+00°)
6.45654229034650e+02	(9.87690834685276e+01dB,-1.40678010825542e+00°)
6.60693448007591e+02	(9.87691317680073e+01dB,-1.43262093243597e+00°)
6.76082975391976e+02	(9.87691824932495e+01dB,-1.45922368699605e+00°)
6.91830970918931e+02	(9.87692357503252e+01dB,-1.48660264424528e+00°)
