Freq.	V(out)
1.00000000000000e+00	(1.05263945358043e+02dB,-5.22938811158747e+01°)
1.02329299228075e+00	(1.05116326329674e+02dB,-5.20925257108439e+01°)
1.04712854805090e+00	(1.04969853036972e+02dB,-5.18796462575417e+01°)
1.07151930523761e+00	(1.04824582247595e+02dB,-5.16554823666727e+01°)
1.09647819614318e+00	(1.04680569875719e+02dB,-5.14202862921774e+01°)
1.12201845430196e+00	(1.04537870899682e+02dB,-5.11743229838469e+01°)
1.14815362149688e+00	(1.04396539275760e+02dB,-5.09178701107498e+01°)
1.17489755493953e+00	(1.04256627848599e+02dB,-5.06512180518673e+01°)
1.20226443461741e+00	(1.04118188258268e+02dB,-5.03746698507990e+01°)
1.23026877081238e+00	(1.03981270844732e+02dB,-5.00885411314868e+01°)
1.25892541179417e+00	(1.03845924550139e+02dB,-4.97931599723144e+01°)
1.28824955169313e+00	(1.03712196819184e+02dB,-4.94888667356081e+01°)
1.31825673855641e+00	(1.03580133498469e+02dB,-4.91760138507990e+01°)
1.34896288259165e+00	(1.03449778735406e+02dB,-4.88549655490949e+01°)
1.38038426460288e+00	(1.03321174877088e+02dB,-4.85260975482510e+01°)
1.41253754462275e+00	(1.03194362370191e+02dB,-4.81897966864473e+01°)
1.44543977074593e+00	(1.03069379662340e+02dB,-4.78464605047084e+01°)
1.47910838816821e+00	(1.02946263105846e+02dB,-4.74964967778344e+01°)
1.51356124843621e+00	(1.02825046864568e+02dB,-4.71403229942172e+01°)
1.54881661891248e+00	(1.02705762824482e+02dB,-4.67783657855997e+01°)
1.58489319246111e+00	(1.02588440509003e+02dB,-4.64110603083910e+01°)
1.62181009735893e+00	(1.02473106999458e+02dB,-4.60388495784310e+01°)
1.65958690743756e+00	(1.02359786861830e+02dB,-4.56621837620413e+01°)
1.69824365246174e+00	(1.02248502079917e+02dB,-4.52815194262699e+01°)
1.73780082874937e+00	(1.02139271996040e+02dB,-4.48973187521698e+01°)
1.77827941003892e+00	(1.02032113259555e+02dB,-4.45100487150098e+01°)
1.81970085860998e+00	(1.01927039783779e+02dB,-4.41201802360312e+01°)
1.86208713666287e+00	(1.01824062711741e+02dB,-4.37281873105936e+01°)
1.90546071796325e+00	(1.01723190391112e+02dB,-4.33345461177930e+01°)
1.94984459975804e+00	(1.01624428358724e+02dB,-4.29397341172011e+01°)
1.99526231496888e+00	(1.01527779334438e+02dB,-4.25442291379678e+01°)
2.04173794466953e+00	(1.01433243225148e+02dB,-4.21485084664673e+01°)
2.08929613085404e+00	(1.01340817138190e+02dB,-4.17530479378670e+01°)
2.13796208950223e+00	(1.01250495404594e+02dB,-4.13583210375633e+01°)
2.18776162394955e+00	(1.01162269611765e+02dB,-4.09647980181051e+01°)
2.23872113856834e+00	(1.01076128645292e+02dB,-4.05729450369470e+01°)
2.29086765276777e+00	(1.00992058739717e+02dB,-4.01832233204822e+01°)
2.34422881531992e+00	(1.00910043537711e+02dB,-3.97960883591092e+01°)
2.39883291901949e+00	(1.00830064156986e+02dB,-3.94119891378791e+01°)
2.45470891568503e+00	(1.00752099264798e+02dB,-3.90313674071825e+01°)
2.51188643150958e+00	(1.00676125158942e+02dB,-3.86546569967886e+01°)
2.57039578276886e+00	(1.00602115854938e+02dB,-3.82822831768746e+01°)
2.63026799189538e+00	(1.00530043178448e+02dB,-3.79146620685079e+01°)
2.69153480392691e+00	(1.00459876862296e+02dB,-3.75522001059439e+01°)
2.75422870333816e+00	(1.00391584647242e+02dB,-3.71952935522842e+01°)
2.81838293126445e+00	(1.00325132385963e+02dB,-3.68443280698817e+01°)
2.88403150312660e+00	(1.00260484149080e+02dB,-3.64996783457652e+01°)
2.95120922666638e+00	(1.00197602332827e+02dB,-3.61617077724554e+01°)
3.01995172040201e+00	(1.00136447767437e+02dB,-3.58307681836520e+01°)
3.09029543251359e+00	(1.00076979825530e+02dB,-3.55071996439360e+01°)
3.16227766016837e+00	(1.00019156529828e+02dB,-3.51913302911749e+01°)
3.23593656929628e+00	(9.99629346595930e+01dB,-3.48834762299601e+01°)
3.31131121482591e+00	(9.99082698550177e+01dB,-3.45839414739069e+01°)
3.38844156139202e+00	(9.98551167191890e+01dB,-3.42930179345633e+01°)
3.46736850452531e+00	(9.98034289170015e+01dB,-3.40109854541144e+01°)
3.54813389233575e+00	(9.97531592704763e+01dB,-3.37381118790012e+01°)
3.63078054770101e+00	(9.97042598503194e+01dB,-3.34746531714522e+01°)
3.71535229097172e+00	(9.96566820630260e+01dB,-3.32208535554329e+01°)
3.80189396320560e+00	(9.96103767335236e+01dB,-3.29769456938775e+01°)
3.89045144994280e+00	(9.95652941829139e+01dB,-3.27431508936026e+01°)
3.98107170553496e+00	(9.95213843012252e+01dB,-3.25196793344734e+01°)
4.07380277804112e+00	(9.94785966149316e+01dB,-3.23067303192997e+01°)
4.16869383470335e+00	(9.94368803492529e+01dB,-3.21044925410367e+01°)
4.26579518801592e+00	(9.93961844850563e+01dB,-3.19131443638052e+01°)
4.36515832240165e+00	(9.93564578105199e+01dB,-3.17328541145436e+01°)
4.46683592150962e+00	(9.93176489674069e+01dB,-3.15637803818778e+01°)
4.57088189614874e+00	(9.92797064921318e+01dB,-3.14060723191692e+01°)
4.67735141287197e+00	(9.92425788517817e+01dB,-3.12598699488985e+01°)
4.78630092322637e+00	(9.92062144751084e+01dB,-3.11253044653397e+01°)
4.89778819368445e+00	(9.91705617786667e+01dB,-3.10024985328570e+01°)
5.01187233627271e+00	(9.91355691884401e+01dB,-3.08915665775166e+01°)
5.12861383991364e+00	(9.91011851570567e+01dB,-3.07926150694944e+01°)
5.24807460249771e+00	(9.90673581768264e+01dB,-3.07057427940877e+01°)
5.37031796370252e+00	(9.90340367888084e+01dB,-3.06310411092403e+01°)
5.49540873857623e+00	(9.90011695885131e+01dB,-3.05685941882444e+01°)
5.62341325190348e+00	(9.89687052280135e+01dB,-3.05184792452016e+01°)
5.75439937337156e+00	(9.89365924151128e+01dB,-3.04807667422249e+01°)
5.88843655355588e+00	(9.89047799098271e+01dB,-3.04555205770453e+01°)
6.02559586074356e+00	(9.88732165183920e+01dB,-3.04427982496311e+01°)
6.16595001861481e+00	(9.88418510852744e+01dB,-3.04426510071186e+01°)
6.30957344480192e+00	(9.88106324833359e+01dB,-3.04551239658767e+01°)
6.45654229034654e+00	(9.87795096026101e+01dB,-3.04802562102679e+01°)
6.60693448007594e+00	(9.87484313379164e+01dB,-3.05180808673311e+01°)
6.76082975391980e+00	(9.87173465759110e+01dB,-3.05686251575182e+01°)
6.91830970918935e+00	(9.86862041814933e+01dB,-3.06319104204668e+01°)
7.07945784384136e+00	(9.86549529842510e+01dB,-3.07079521163388e+01°)
7.24435960074988e+00	(9.86235417651442e+01dB,-3.07967598025537e+01°)
7.41310241300916e+00	(9.85919192438902e+01dB,-3.08983370863682e+01°)
7.58577575029182e+00	(9.85600340670851e+01dB,-3.10126815530364e+01°)
7.76247116628690e+00	(9.85278347977240e+01dB,-3.11397846707373e+01°)
7.94328234724279e+00	(9.84952699064162e+01dB,-3.12796316728748e+01°)
8.12830516164097e+00	(9.84622877643430e+01dB,-3.14322014179783e+01°)
8.31763771102669e+00	(9.84288366385464e+01dB,-3.15974662287024e+01°)
8.51138038202374e+00	(9.83948646899267e+01dB,-3.17753917112897e+01°)
8.70963589956078e+00	(9.83603199738358e+01dB,-3.19659365557699e+01°)
8.91250938133743e+00	(9.83251504441666e+01dB,-3.21690523197977e+01°)
9.12010839355907e+00	(9.82893039605823e+01dB,-3.23846831962070e+01°)
9.33254300796988e+00	(9.82527282998741e+01dB,-3.26127657678877e+01°)
9.54992586021433e+00	(9.82153711708099e+01dB,-3.28532287496401e+01°)
9.77237220955808e+00	(9.81771802338380e+01dB,-3.31059927221306e+01°)
9.99999999999997e+00	(9.81381031245873e+01dB,-3.33709698568111e+01°)
1.02329299228075e+01	(9.80980874825659e+01dB,-3.36480636375955e+01°)
1.04712854805090e+01	(9.80570809843651e+01dB,-3.39371685795495e+01°)
1.07151930523760e+01	(9.80150313820197e+01dB,-3.42381699488148e+01°)
1.09647819614318e+01	(9.79718865462711e+01dB,-3.45509434856622e+01°)
1.12201845430196e+01	(9.79275945151495e+01dB,-3.48753551347880e+01°)
1.14815362149688e+01	(9.78821035476800e+01dB,-3.52112607853206e+01°)
1.17489755493953e+01	(9.78353621827789e+01dB,-3.55585060240870e+01°)
1.20226443461741e+01	(9.77873193033024e+01dB,-3.59169259055230e+01°)
1.23026877081238e+01	(9.77379242050869e+01dB,-3.62863447414607e+01°)
1.25892541179416e+01	(9.76871266711740e+01dB,-3.66665759154117e+01°)
1.28824955169313e+01	(9.76348770503124e+01dB,-3.70574217223826e+01°)
1.31825673855640e+01	(9.75811263402780e+01dB,-3.74586732403441e+01°)
1.34896288259165e+01	(9.75258262752073e+01dB,-3.78701102350296e+01°)
1.38038426460288e+01	(9.74689294168501e+01dB,-3.82915011022079e+01°)
1.41253754462275e+01	(9.74103892491000e+01dB,-3.87226028497330e+01°)
1.44543977074592e+01	(9.73501602755223e+01dB,-3.91631611229969e+01°)
1.47910838816820e+01	(9.72881981193217e+01dB,-3.96129102762644e+01°)
1.51356124843620e+01	(9.72244596251963e+01dB,-4.00715734924799e+01°)
1.54881661891248e+01	(9.71589029622680e+01dB,-4.05388629527445e+01°)
1.58489319246111e+01	(9.70914877277310e+01dB,-4.10144800584619e+01°)
1.62181009735892e+01	(9.70221750504222e+01dB,-4.14981157071895e+01°)
1.65958690743755e+01	(9.69509276933292e+01dB,-4.19894506217895e+01°)
1.69824365246174e+01	(9.68777101547939e+01dB,-4.24881557357350e+01°)
1.73780082874937e+01	(9.68024887671219e+01dB,-4.29938926321241e+01°)
1.77827941003892e+01	(9.67252317920389e+01dB,-4.35063140368359e+01°)
1.81970085860998e+01	(9.66459095123808e+01dB,-4.40250643654406e+01°)
1.86208713666286e+01	(9.65644943189382e+01dB,-4.45497803209218e+01°)
1.90546071796324e+01	(9.64809607919239e+01dB,-4.50800915409923e+01°)
1.94984459975804e+01	(9.63952857760736e+01dB,-4.56156212909270e+01°)
1.99526231496887e+01	(9.63074484491204e+01dB,-4.61559872009823e+01°)
2.04173794466952e+01	(9.62174303825913e+01dB,-4.67008020425560e+01°)
2.08929613085403e+01	(9.61252155944358e+01dB,-4.72496745392757e+01°)
2.13796208950222e+01	(9.60307905931051e+01dB,-4.78022102092760e+01°)
2.18776162394954e+01	(9.59341444126349e+01dB,-4.83580122338521e+01°)
2.23872113856833e+01	(9.58352686379699e+01dB,-4.89166823447261e+01°)
2.29086765276776e+01	(9.57341574207445e+01dB,-4.94778217274043e+01°)
2.34422881531991e+01	(9.56308074851322e+01dB,-5.00410319340942e+01°)
2.39883291901948e+01	(9.55252181234004e+01dB,-5.06059157982262e+01°)
2.45470891568502e+01	(9.54173911816168e+01dB,-5.11720783481053e+01°)
2.51188643150957e+01	(9.53073310350886e+01dB,-5.17391277103433e+01°)
2.57039578276885e+01	(9.51950445540989e+01dB,-5.23066759999819e+01°)
2.63026799189537e+01	(9.50805410600362e+01dB,-5.28743401906201e+01°)
2.69153480392690e+01	(9.49638322721121e+01dB,-5.34417429581841e+01°)
2.75422870333815e+01	(9.48449322454305e+01dB,-5.40085134956551e+01°)
2.81838293126444e+01	(9.47238573004760e+01dB,-5.45742882907808e+01°)
2.88403150312659e+01	(9.46006259449449e+01dB,-5.51387118652517e+01°)
2.95120922666637e+01	(9.44752587884037e+01dB,-5.57014374704841e+01°)
3.01995172040200e+01	(9.43477784502871e+01dB,-5.62621277351019e+01°)
3.09029543251358e+01	(9.42182094622261e+01dB,-5.68204552636807e+01°)
3.16227766016837e+01	(9.40865781652173e+01dB,-5.73761031824221e+01°)
3.23593656929627e+01	(9.39529126024904e+01dB,-5.79287656305187e+01°)
3.31131121482590e+01	(9.38172424087937e+01dB,-5.84781481957463e+01°)
3.38844156139201e+01	(9.36795986969621e+01dB,-5.90239682939049e+01°)
3.46736850452530e+01	(9.35400139424040e+01dB,-5.95659554909714e+01°)
3.54813389233574e+01	(9.33985218663093e+01dB,-6.01038517683275e+01°)
3.63078054770100e+01	(9.32551573183841e+01dB,-6.06374117325267e+01°)
3.71535229097171e+01	(9.31099561596447e+01dB,-6.11664027691394e+01°)
3.80189396320559e+01	(9.29629551461096e+01dB,-6.16906051438321e+01°)
3.89045144994279e+01	(9.28141918138601e+01dB,-6.22098120508156e+01°)
3.98107170553495e+01	(9.26637043661597e+01dB,-6.27238296123440e+01°)
4.07380277804111e+01	(9.25115315630672e+01dB,-6.32324768301675e+01°)
4.16869383470333e+01	(9.23577126141359e+01dB,-6.37355854933225e+01°)
4.26579518801591e+01	(9.22022870744792e+01dB,-6.42330000432333e+01°)
4.36515832240164e+01	(9.20452947446888e+01dB,-6.47245774000604e+01°)
4.46683592150961e+01	(9.18867755749141e+01dB,-6.52101867541830e+01°)
4.57088189614873e+01	(9.17267695732753e+01dB,-6.56897093236590e+01°)
4.67735141287196e+01	(9.15653167189972e+01dB,-6.61630380837528e+01°)
4.78630092322636e+01	(9.14024568802139e+01dB,-6.66300774687242e+01°)
4.89778819368444e+01	(9.12382297368100e+01dB,-6.70907430519599e+01°)
5.01187233627270e+01	(9.10726747081452e+01dB,-6.75449612048337e+01°)
5.12861383991362e+01	(9.09058308858495e+01dB,-6.79926687391875e+01°)
5.24807460249770e+01	(9.07377369716701e+01dB,-6.84338125357865e+01°)
5.37031796370250e+01	(9.05684312202173e+01dB,-6.88683491605636e+01°)
5.49540873857622e+01	(9.03979513867267e+01dB,-6.92962444731461e+01°)
5.62341325190346e+01	(9.02263346795810e+01dB,-6.97174732283746e+01°)
5.75439937337154e+01	(9.00536177175486e+01dB,-7.01320186739826e+01°)
5.88843655355586e+01	(8.98798364915981e+01dB,-7.05398721467890e+01°)
6.02559586074355e+01	(8.97050263310995e+01dB,-7.09410326684682e+01°)
6.16595001861479e+01	(8.95292218742619e+01dB,-7.13355065439869e+01°)
6.30957344480190e+01	(8.93524570426134e+01dB,-7.17233069630691e+01°)
6.45654229034652e+01	(8.91747650193255e+01dB,-7.21044536070616e+01°)
6.60693448007593e+01	(8.89961782312028e+01dB,-7.24789722624597e+01°)
6.76082975391978e+01	(8.88167283340761e+01dB,-7.28468944413798e+01°)
6.91830970918933e+01	(8.86364462014865e+01dB,-7.32082570116466e+01°)
7.07945784384134e+01	(8.84553619163239e+01dB,-7.35631018351124e+01°)
7.24435960074986e+01	(8.82735047653589e+01dB,-7.39114754176943e+01°)
7.41310241300914e+01	(8.80909032363192e+01dB,-7.42534285689447e+01°)
7.58577575029180e+01	(8.79075850174361e+01dB,-7.45890160739569e+01°)
7.76247116628688e+01	(8.77235769991704e+01dB,-7.49182963763096e+01°)
7.94328234724277e+01	(8.75389052779790e+01dB,-7.52413312736231e+01°)
8.12830516164095e+01	(8.73535951619515e+01dB,-7.55581856252047e+01°)
8.31763771102667e+01	(8.71676711780536e+01dB,-7.58689270713272e+01°)
8.51138038202372e+01	(8.69811570809692e+01dB,-7.61736257664491e+01°)
8.70963589956076e+01	(8.67940758631942e+01dB,-7.64723541230458e+01°)
8.91250938133741e+01	(8.66064497663819e+01dB,-7.67651865689157e+01°)
9.12010839355905e+01	(8.64183002937252e+01dB,-7.70521993162212e+01°)
9.33254300796986e+01	(8.62296482232337e+01dB,-7.73334701421942e+01°)
9.54992586021431e+01	(8.60405136218436e+01dB,-7.76090781820026e+01°)
9.77237220955805e+01	(8.58509158601669e+01dB,-7.78791037328584e+01°)
9.99999999999995e+01	(8.56608736278214e+01dB,-7.81436280690190e+01°)
1.02329299228075e+02	(8.54704049492245e+01dB,-7.84027332681581e+01°)
1.04712854805089e+02	(8.52795271997436e+01dB,-7.86565020475645e+01°)
1.07151930523760e+02	(8.50882571221636e+01dB,-7.89050176111400e+01°)
1.09647819614318e+02	(8.48966108433240e+01dB,-7.91483635056646e+01°)
1.12201845430196e+02	(8.47046038909031e+01dB,-7.93866234865209e+01°)
1.14815362149688e+02	(8.45122512102878e+01dB,-7.96198813929756e+01°)
1.17489755493952e+02	(8.43195671814300e+01dB,-7.98482210311748e+01°)
1.20226443461741e+02	(8.41265656356705e+01dB,-8.00717260665337e+01°)
1.23026877081237e+02	(8.39332598724529e+01dB,-8.02904799227176e+01°)
1.25892541179416e+02	(8.37396626759446e+01dB,-8.05045656896157e+01°)
1.28824955169313e+02	(8.35457863314288e+01dB,-8.07140660371193e+01°)
1.31825673855640e+02	(8.33516426415215e+01dB,-8.09190631365586e+01°)
1.34896288259165e+02	(8.31572429421624e+01dB,-8.11196385883261e+01°)
1.38038426460288e+02	(8.29625981183011e+01dB,-8.13158733554395e+01°)
1.41253754462275e+02	(8.27677186193478e+01dB,-8.15078477033812e+01°)
1.44543977074592e+02	(8.25726144742797e+01dB,-8.16956411446512e+01°)
1.47910838816820e+02	(8.23772953064508e+01dB,-8.18793323891809e+01°)
1.51356124843620e+02	(8.21817703480613e+01dB,-8.20589992992197e+01°)
1.54881661891247e+02	(8.19860484542872e+01dB,-8.22347188486984e+01°)
1.58489319246110e+02	(8.17901381170516e+01dB,-8.24065670872870e+01°)
1.62181009735892e+02	(8.15940474784417e+01dB,-8.25746191079285e+01°)
1.65958690743755e+02	(8.13977843437710e+01dB,-8.27389490186412e+01°)
1.69824365246173e+02	(8.12013561942545e+01dB,-8.28996299174675e+01°)
1.73780082874936e+02	(8.10047701993497e+01dB,-8.30567338709690e+01°)
1.77827941003891e+02	(8.08080332287018e+01dB,-8.32103318955102e+01°)
1.81970085860997e+02	(8.06111518637367e+01dB,-8.33604939418355e+01°)
1.86208713666286e+02	(8.04141324089018e+01dB,-8.35072888818436e+01°)
1.90546071796323e+02	(8.02169809025274e+01dB,-8.36507844980787e+01°)
1.94984459975803e+02	(8.00197031273541e+01dB,-8.37910474755855e+01°)
1.99526231496887e+02	(7.98223046206959e+01dB,-8.39281433957065e+01°)
2.04173794466952e+02	(7.96247906842619e+01dB,-8.40621367319373e+01°)
2.08929613085403e+02	(7.94271663936615e+01dB,-8.41930908476609e+01°)
2.13796208950222e+02	(7.92294366075359e+01dB,-8.43210679953926e+01°)
2.18776162394954e+02	(7.90316059764146e+01dB,-8.44461293177878e+01°)
2.23872113856832e+02	(7.88336789512264e+01dB,-8.45683348498683e+01°)
2.29086765276776e+02	(7.86356597914955e+01dB,-8.46877435226655e+01°)
2.34422881531991e+02	(7.84375525732705e+01dB,-8.48044131680300e+01°)
2.39883291901947e+02	(7.82393611967239e+01dB,-8.49184005244928e+01°)
2.45470891568501e+02	(7.80410893934871e+01dB,-8.50297612441188e+01°)
2.51188643150956e+02	(7.78427407337073e+01dB,-8.51385499003310e+01°)
2.57039578276885e+02	(7.76443186328228e+01dB,-8.52448199964112e+01°)
2.63026799189536e+02	(7.74458263580997e+01dB,-8.53486239748573e+01°)
2.69153480392690e+02	(7.72472670348891e+01dB,-8.54500132273348e+01°)
2.75422870333815e+02	(7.70486436526690e+01dB,-8.55490381051872e+01°)
2.81838293126443e+02	(7.68499590708261e+01dB,-8.56457479305347e+01°)
2.88403150312659e+02	(7.66512160242206e+01dB,-8.57401910077079e+01°)
2.95120922666637e+02	(7.64524171285253e+01dB,-8.58324146352953e+01°)
3.01995172040200e+02	(7.62535648853616e+01dB,-8.59224651183186e+01°)
3.09029543251357e+02	(7.60546616872191e+01dB,-8.60103877808426e+01°)
3.16227766016836e+02	(7.58557098221718e+01dB,-8.60962269788019e+01°)
3.23593656929626e+02	(7.56567114784259e+01dB,-8.61800261129783e+01°)
3.31131121482589e+02	(7.54576687486546e+01dB,-8.62618276422953e+01°)
3.38844156139200e+02	(7.52585836341857e+01dB,-8.63416730971488e+01°)
3.46736850452529e+02	(7.50594580489856e+01dB,-8.64196030927952e+01°)
3.54813389233573e+02	(7.48602938235155e+01dB,-8.64956573429372e+01°)
3.63078054770099e+02	(7.46610927083896e+01dB,-8.65698746732649e+01°)
3.71535229097170e+02	(7.44618563779220e+01dB,-8.66422930351201e+01°)
3.80189396320558e+02	(7.42625864334941e+01dB,-8.67129495188861e+01°)
3.89045144994278e+02	(7.40632844068156e+01dB,-8.67818803677806e+01°)
3.98107170553494e+02	(7.38639517630060e+01dB,-8.68491209912573e+01°)
4.07380277804110e+02	(7.36645899035911e+01dB,-8.69147059783797e+01°)
4.16869383470332e+02	(7.34652001693600e+01dB,-8.69786691112902e+01°)
4.26579518801589e+02	(7.32657838430893e+01dB,-8.70410433783503e+01°)
4.36515832240163e+02	(7.30663421521703e+01dB,-8.71018609874341e+01°)
4.46683592150960e+02	(7.28668762711369e+01dB,-8.71611533788027e+01°)
4.57088189614872e+02	(7.26673873240512e+01dB,-8.72189512380823e+01°)
4.67735141287195e+02	(7.24678763868262e+01dB,-8.72752845089322e+01°)
4.78630092322635e+02	(7.22683444894461e+01dB,-8.73301824056218e+01°)
4.89778819368442e+02	(7.20687926180764e+01dB,-8.73836734255276e+01°)
5.01187233627268e+02	(7.18692217171018e+01dB,-8.74357853612101e+01°)
5.12861383991361e+02	(7.16696326910869e+01dB,-8.74865453126202e+01°)
5.24807460249769e+02	(7.14700264066307e+01dB,-8.75359796988797e+01°)
5.37031796370249e+02	(7.12704036941799e+01dB,-8.75841142699225e+01°)
5.49540873857620e+02	(7.10707653497391e+01dB,-8.76309741180615e+01°)
5.62341325190345e+02	(7.08711121365242e+01dB,-8.76765836892162e+01°)
5.75439937337152e+02	(7.06714447865519e+01dB,-8.77209667939651e+01°)
5.88843655355584e+02	(7.04717640021625e+01dB,-8.77641466184599e+01°)
6.02559586074353e+02	(7.02720704574746e+01dB,-8.78061457350260e+01°)
6.16595001861477e+02	(7.00723647998053e+01dB,-8.78469861126628e+01°)
6.30957344480188e+02	(6.98726476510006e+01dB,-8.78866891271914e+01°)
6.45654229034650e+02	(6.96729196087515e+01dB,-8.79252755713530e+01°)
6.60693448007591e+02	(6.94731812478313e+01dB,-8.79627656646296e+01°)
6.76082975391976e+02	(6.92734331213015e+01dB,-8.79991790626904e+01°)
6.91830970918931e+02	(6.90736757616613e+01dB,-8.80345348668850e+01°)
