Freq.	V(out)
1.00000000000000e+000	3.87997965997012e+000,-1.77885297728096e-005
1.02329299228075e+000	3.87997965996707e+000,-1.82028778594828e-005
1.04712854805090e+000	3.87997965996388e+000,-1.86268773529397e-005
1.07151930523761e+000	3.87997965996054e+000,-1.90607530633239e-005
1.09647819614318e+000	3.87997965995704e+000,-1.95047350372801e-005
1.12201845430196e+000	3.87997965995337e+000,-1.99590586799274e-005
1.14815362149688e+000	3.87997965994954e+000,-2.04239648796748e-005
1.17489755493953e+000	3.87997965994552e+000,-2.08997001359432e-005
1.20226443461741e+000	3.87997965994131e+000,-2.13865166898623e-005
1.23026877081238e+000	3.87997965993690e+000,-2.18846726580128e-005
1.25892541179417e+000	3.87997965993229e+000,-2.23944321692827e-005
1.28824955169313e+000	3.87997965992746e+000,-2.29160655049122e-005
1.31825673855641e+000	3.87997965992240e+000,-2.34498492418003e-005
1.34896288259165e+000	3.87997965991710e+000,-2.39960663991498e-005
1.38038426460288e+000	3.87997965991155e+000,-2.45550065885272e-005
1.41253754462275e+000	3.87997965990574e+000,-2.51269661674193e-005
1.44543977074593e+000	3.87997965989966e+000,-2.57122483963654e-005
1.47910838816821e+000	3.87997965989329e+000,-2.63111635997503e-005
1.51356124843621e+000	3.87997965988662e+000,-2.69240293303421e-005
1.54881661891248e+000	3.87997965987964e+000,-2.75511705376632e-005
1.58489319246111e+000	3.87997965987232e+000,-2.81929197402827e-005
1.62181009735893e+000	3.87997965986466e+000,-2.88496172021222e-005
1.65958690743756e+000	3.87997965985665e+000,-2.95216111128680e-005
1.69824365246174e+000	3.87997965984825e+000,-3.02092577725862e-005
1.73780082874937e+000	3.87997965983946e+000,-3.09129217806376e-005
1.77827941003892e+000	3.87997965983025e+000,-3.16329762289931e-005
1.81970085860998e+000	3.87997965982061e+000,-3.23698029000517e-005
1.86208713666287e+000	3.87997965981052e+000,-3.31237924690673e-005
1.90546071796325e+000	3.87997965979995e+000,-3.38953447112891e-005
1.94984459975804e+000	3.87997965978888e+000,-3.46848687139281e-005
1.99526231496888e+000	3.87997965977729e+000,-3.54927830930608e-005
2.04173794466953e+000	3.87997965976515e+000,-3.63195162155844e-005
2.08929613085404e+000	3.87997965975244e+000,-3.71655064263431e-005
2.13796208950223e+000	3.87997965973913e+000,-3.80312022805440e-005
2.18776162394955e+000	3.87997965972520e+000,-3.89170627815873e-005
2.23872113856834e+000	3.87997965971060e+000,-3.98235576244357e-005
2.29086765276777e+000	3.87997965969533e+000,-4.07511674446530e-005
2.34422881531992e+000	3.87997965967933e+000,-4.17003840732436e-005
2.39883291901949e+000	3.87997965966257e+000,-4.26717107974274e-005
2.45470891568503e+000	3.87997965964503e+000,-4.36656626274898e-005
2.51188643150958e+000	3.87997965962666e+000,-4.46827665698466e-005
2.57039578276886e+000	3.87997965960742e+000,-4.57235619064702e-005
2.63026799189538e+000	3.87997965958728e+000,-4.67886004808233e-005
2.69153480392691e+000	3.87997965956619e+000,-4.78784469904545e-005
2.75422870333816e+000	3.87997965954410e+000,-4.89936792864076e-005
2.81838293126445e+000	3.87997965952098e+000,-5.01348886796067e-005
2.88403150312660e+000	3.87997965949676e+000,-5.13026802543762e-005
2.95120922666638e+000	3.87997965947141e+000,-5.24976731892651e-005
3.01995172040201e+000	3.87997965944485e+000,-5.37205010853434e-005
3.09029543251359e+000	3.87997965941705e+000,-5.49718123021460e-005
3.16227766016837e+000	3.87997965938793e+000,-5.62522703014412e-005
3.23593656929628e+000	3.87997965935745e+000,-5.75625539990070e-005
3.31131121482591e+000	3.87997965932552e+000,-5.89033581246015e-005
3.38844156139202e+000	3.87997965929210e+000,-6.02753935903175e-005
3.46736850452531e+000	3.87997965925709e+000,-6.16793878675172e-005
3.54813389233575e+000	3.87997965922044e+000,-6.31160853725480e-005
3.63078054770101e+000	3.87997965918206e+000,-6.45862478614412e-005
3.71535229097172e+000	3.87997965914187e+000,-6.60906548338053e-005
3.80189396320560e+000	3.87997965909979e+000,-6.76301039461268e-005
3.89045144994280e+000	3.87997965905572e+000,-6.92054114346989e-005
3.98107170553496e+000	3.87997965900958e+000,-7.08174125483996e-005
4.07380277804112e+000	3.87997965896126e+000,-7.24669619915531e-005
4.16869383470335e+000	3.87997965891067e+000,-7.41549343771040e-005
4.26579518801592e+000	3.87997965885769e+000,-7.58822246903496e-005
4.36515832240165e+000	3.87997965880221e+000,-7.76497487634726e-005
4.46683592150962e+000	3.87997965874412e+000,-7.94584437611270e-005
4.57088189614874e+000	3.87997965868329e+000,-8.13092686773360e-005
4.67735141287197e+000	3.87997965861960e+000,-8.32032048439627e-005
4.78630092322637e+000	3.87997965855290e+000,-8.51412564510253e-005
4.89778819368445e+000	3.87997965848306e+000,-8.71244510791320e-005
5.01187233627271e+000	3.87997965840993e+000,-8.91538402443181e-005
5.12861383991364e+000	3.87997965833335e+000,-9.12304999555730e-005
5.24807460249771e+000	3.87997965825316e+000,-9.33555312853550e-005
5.37031796370252e+000	3.87997965816919e+000,-9.55300609533940e-005
5.49540873857623e+000	3.87997965808127e+000,-9.77552419240936e-005
5.62341325190348e+000	3.87997965798920e+000,-1.00032254017848e-004
5.75439937337156e+000	3.87997965789280e+000,-1.02362304536597e-004
5.88843655355588e+000	3.87997965779185e+000,-1.04746628903957e-004
6.02559586074356e+000	3.87997965768614e+000,-1.07186491320253e-004
6.16595001861481e+000	3.87997965757545e+000,-1.09683185432821e-004
6.30957344480192e+000	3.87997965745954e+000,-1.12238035021912e-004
6.45654229034654e+000	3.87997965733817e+000,-1.14852394702580e-004
6.60693448007594e+000	3.87997965721109e+000,-1.17527650642915e-004
6.76082975391980e+000	3.87997965707801e+000,-1.20265221299010e-004
6.91830970918935e+000	3.87997965693866e+000,-1.23066558167043e-004
7.07945784384136e+000	3.87997965679274e+000,-1.25933146552882e-004
7.24435960074988e+000	3.87997965663995e+000,-1.28866506359608e-004
7.41310241300916e+000	3.87997965647995e+000,-1.31868192893397e-004
7.58577575029182e+000	3.87997965631242e+000,-1.34939797688153e-004
7.76247116628690e+000	3.87997965613698e+000,-1.38082949349370e-004
7.94328234724279e+000	3.87997965595329e+000,-1.41299314417632e-004
8.12830516164097e+000	3.87997965576093e+000,-1.44590598252241e-004
8.31763771102669e+000	3.87997965555951e+000,-1.47958545935417e-004
8.51138038202374e+000	3.87997965534859e+000,-1.51404943197566e-004
8.70963589956078e+000	3.87997965512774e+000,-1.54931617364096e-004
8.91250938133743e+000	3.87997965489648e+000,-1.58540438324288e-004
9.12010839355907e+000	3.87997965465431e+000,-1.62233319522740e-004
9.33254300796988e+000	3.87997965440074e+000,-1.66012218973896e-004
9.54992586021433e+000	3.87997965413521e+000,-1.69879140300214e-004
9.77237220955808e+000	3.87997965385717e+000,-1.73836133794510e-004
9.99999999999997e+000	3.87997965356603e+000,-1.77885297507052e-004
1.02329299228075e+001	3.87997965326116e+000,-1.82028778357976e-004
1.04712854805090e+001	3.87997965294193e+000,-1.86268773275605e-004
1.07151930523760e+001	3.87997965260766e+000,-1.90607530361297e-004
1.09647819614318e+001	3.87997965225762e+000,-1.95047350081409e-004
1.12201845430196e+001	3.87997965189110e+000,-1.99590586487042e-004
1.14815362149688e+001	3.87997965150730e+000,-2.04239648462186e-004
1.17489755493953e+001	3.87997965110541e+000,-2.08997001000942e-004
1.20226443461741e+001	3.87997965068458e+000,-2.13865166514494e-004
1.23026877081238e+001	3.87997965024391e+000,-2.18846726168526e-004
1.25892541179416e+001	3.87997964978248e+000,-2.23944321251787e-004
1.28824955169313e+001	3.87997964929930e+000,-2.29160654576539e-004
1.31825673855640e+001	3.87997964879336e+000,-2.34498491911622e-004
1.34896288259165e+001	3.87997964826356e+000,-2.39960663448901e-004
1.38038426460288e+001	3.87997964770880e+000,-2.45550065303869e-004
1.41253754462275e+001	3.87997964712789e+000,-2.51269661051208e-004
1.44543977074592e+001	3.87997964651961e+000,-2.57122483296114e-004
1.47910838816820e+001	3.87997964588266e+000,-2.63111635282221e-004
1.51356124843620e+001	3.87997964521569e+000,-2.69240292536982e-004
1.54881661891248e+001	3.87997964451728e+000,-2.75511704555378e-004
1.58489319246111e+001	3.87997964378597e+000,-2.81929196522838e-004
1.62181009735892e+001	3.87997964302018e+000,-2.88496171078297e-004
1.65958690743755e+001	3.87997964221830e+000,-2.95216110118317e-004
1.69824365246174e+001	3.87997964137864e+000,-3.02092576643239e-004
1.73780082874937e+001	3.87997964049940e+000,-3.09129216646325e-004
1.77827941003892e+001	3.87997963957873e+000,-3.16329761046914e-004
1.81970085860998e+001	3.87997963861466e+000,-3.23698027668601e-004
1.86208713666286e+001	3.87997963760516e+000,-3.31237923263498e-004
1.90546071796324e+001	3.87997963654808e+000,-3.38953445583646e-004
1.94984459975804e+001	3.87997963544119e+000,-3.46848685500666e-004
1.99526231496887e+001	3.87997963428212e+000,-3.54927829174800e-004
2.04173794466952e+001	3.87997963306844e+000,-3.63195160274462e-004
2.08929613085403e+001	3.87997963179755e+000,-3.71655062247494e-004
2.13796208950222e+001	3.87997963046677e+000,-3.80312020645324e-004
2.18776162394954e+001	3.87997962907327e+000,-3.89170625501268e-004
2.23872113856833e+001	3.87997962761410e+000,-3.98235573764212e-004
2.29086765276776e+001	3.87997962608616e+000,-4.07511671789008e-004
2.34422881531991e+001	3.87997962448621e+000,-4.17003837884849e-004
2.39883291901948e+001	3.87997962281085e+000,-4.26717104923030e-004
2.45470891568502e+001	3.87997962105654e+000,-4.36656623005431e-004
2.51188643150957e+001	3.87997961921955e+000,-4.46827662195170e-004
2.57039578276885e+001	3.87997961729599e+000,-4.57235615310852e-004
2.63026799189537e+001	3.87997961528177e+000,-4.67886000785911e-004
2.69153480392690e+001	3.87997961317263e+000,-4.78784465594549e-004
2.75422870333815e+001	3.87997961096408e+000,-4.89936788245833e-004
2.81838293126444e+001	3.87997960865144e+000,-5.01348881847529e-004
2.88403150312659e+001	3.87997960622982e+000,-5.13026797241309e-004
2.95120922666637e+001	3.87997960369407e+000,-5.24976726210970e-004
3.01995172040200e+001	3.87997960103881e+000,-5.37205004765403e-004
3.09029543251358e+001	3.87997959825842e+000,-5.49718116498017e-004
3.16227766016837e+001	3.87997959534699e+000,-5.62522696024417e-004
3.23593656929627e+001	3.87997959229834e+000,-5.75625532500156e-004
3.31131121482590e+001	3.87997958910602e+000,-5.89033573220428e-004
3.38844156139201e+001	3.87997958576325e+000,-6.02753927303602e-004
3.46736850452530e+001	3.87997958226294e+000,-6.16793869460565e-004
3.54813389233574e+001	3.87997957859767e+000,-6.31160843851851e-004
3.63078054770100e+001	3.87997957475965e+000,-6.45862468034628e-004
3.71535229097171e+001	3.87997957074075e+000,-6.60906537001609e-004
3.80189396320559e+001	3.87997956653246e+000,-6.76301027314051e-004
3.89045144994279e+001	3.87997956212583e+000,-6.92054101331010e-004
3.98107170553495e+001	3.87997955751152e+000,-7.08174111537125e-004
4.07380277804111e+001	3.87997955267974e+000,-7.24669604971188e-004
4.16869383470333e+001	3.87997954762026e+000,-7.41549327757890e-004
4.26579518801591e+001	3.87997954232232e+000,-7.58822229745097e-004
4.36515832240164e+001	3.87997953677470e+000,-7.76497469249169e-004
4.46683592150961e+001	3.87997953096563e+000,-7.94584417910791e-004
4.57088189614873e+001	3.87997952488279e+000,-8.13092665663916e-004
4.67735141287196e+001	3.87997951851327e+000,-8.32032025820451e-004
4.78630092322636e+001	3.87997951184357e+000,-8.51412540273368e-004
4.89778819368444e+001	3.87997950485953e+000,-8.71244484821032e-004
5.01187233627270e+001	3.87997949754634e+000,-8.91538374615515e-004
5.12861383991362e+001	3.87997948988850e+000,-9.12304969737849e-004
5.24807460249770e+001	3.87997948186975e+000,-9.33555280903115e-004
5.37031796370250e+001	3.87997947347309e+000,-9.55300575298433e-004
5.49540873857622e+001	3.87997946468071e+000,-9.77552382556929e-004
5.62341325190346e+001	3.87997945547395e+000,-1.00032250087086e-003
5.75439937337154e+001	3.87997944583330e+000,-1.02362300324710e-003
5.88843655355586e+001	3.87997943573829e+000,-1.04746624390838e-003
6.02559586074355e+001	3.87997942516752e+000,-1.07186486484359e-003
6.16595001861479e+001	3.87997941409857e+000,-1.09683180251067e-003
6.30957344480190e+001	3.87997940250795e+000,-1.12238029469563e-003
6.45654229034652e+001	3.87997939037108e+000,-1.14852388753131e-003
6.60693448007593e+001	3.87997937766222e+000,-1.17527644267965e-003
6.76082975391978e+001	3.87997936435441e+000,-1.20265214468128e-003
6.91830970918933e+001	3.87997935041943e+000,-1.23066550847622e-003
7.07945784384134e+001	3.87997933582770e+000,-1.25933138709981e-003
7.24435960074986e+001	3.87997932054830e+000,-1.28866497955789e-003
7.41310241300914e+001	3.87997930454879e+000,-1.31868183888542e-003
7.58577575029180e+001	3.87997928779525e+000,-1.34939788039277e-003
7.76247116628688e+001	3.87997927025214e+000,-1.38082939010412e-003
7.94328234724277e+001	3.87997925188225e+000,-1.41299303339240e-003
8.12830516164095e+001	3.87997923264661e+000,-1.44590586381530e-003
8.31763771102667e+001	3.87997921250443e+000,-1.47958533215721e-003
8.51138038202372e+001	3.87997919141298e+000,-1.51404929568167e-003
8.70963589956076e+001	3.87997916932751e+000,-1.54931602759931e-003
8.91250938133741e+001	3.87997914620119e+000,-1.58540422675644e-003
9.12010839355905e+001	3.87997912198496e+000,-1.62233302754916e-003
9.33254300796986e+001	3.87997909662746e+000,-1.66012201006849e-003
9.54992586021431e+001	3.87997907007489e+000,-1.69879121048176e-003
9.77237220955805e+001	3.87997904227094e+000,-1.73836113165579e-003
9.99999999999995e+001	3.87997901315663e+000,-1.77885275402755e-003
1.02329299228075e+002	3.87997898267020e+000,-1.82028754672795e-003
1.04712854805089e+002	3.87997895074700e+000,-1.86268747896477e-003
1.07151930523760e+002	3.87997891731929e+000,-1.90607503167071e-003
1.09647819614318e+002	3.87997888231620e+000,-1.95047320942271e-003
1.12201845430196e+002	3.87997884566345e+000,-1.99590555263893e-003
1.14815362149688e+002	3.87997880728332e+000,-2.04239615005980e-003
1.17489755493952e+002	3.87997876709438e+000,-2.08996965151971e-003
1.20226443461741e+002	3.87997872501140e+000,-2.13865128101630e-003
1.23026877081237e+002	3.87997868094512e+000,-2.18846685008401e-003
1.25892541179416e+002	3.87997863480205e+000,-2.23944277147920e-003
1.28824955169313e+002	3.87997858648433e+000,-2.29160607318394e-003
1.31825673855640e+002	3.87997853588946e+000,-2.34498441273608e-003
1.34896288259165e+002	3.87997848291014e+000,-2.39960609189291e-003
1.38038426460288e+002	3.87997842743397e+000,-2.45550007163650e-003
1.41253754462275e+002	3.87997836934330e+000,-2.51269598752843e-003
1.44543977074592e+002	3.87997830851490e+000,-2.57122416542213e-003
1.47910838816820e+002	3.87997824481974e+000,-2.63111563754128e-003
1.51356124843620e+002	3.87997817812272e+000,-2.69240215893251e-003
1.54881661891247e+002	3.87997810828238e+000,-2.75511622430142e-003
1.58489319246110e+002	3.87997803515056e+000,-2.81929108524063e-003
1.62181009735892e+002	3.87997795857215e+000,-2.88496076785912e-003
1.65958690743755e+002	3.87997787838472e+000,-2.95216009082208e-003
1.69824365246173e+002	3.87997779441816e+000,-3.02092468381100e-003
1.73780082874936e+002	3.87997770649439e+000,-3.09129100641354e-003
1.77827941003891e+002	3.87997761442690e+000,-3.16329636745350e-003
1.81970085860997e+002	3.87997751802040e+000,-3.23697894477077e-003
1.86208713666286e+002	3.87997741707042e+000,-3.31237780546213e-003
1.90546071796323e+002	3.87997731136281e+000,-3.38953292659322e-003
1.94984459975803e+002	3.87997720067336e+000,-3.46848521639304e-003
1.99526231496887e+002	3.87997708476728e+000,-3.54927653594191e-003
2.04173794466952e+002	3.87997696339871e+000,-3.63194972136454e-003
2.08929613085403e+002	3.87997683631024e+000,-3.71654860653991e-003
2.13796208950222e+002	3.87997670323227e+000,-3.80311804634000e-003
2.18776162394954e+002	3.87997656388254e+000,-3.89170394040969e-003
2.23872113856832e+002	3.87997641796546e+000,-3.98235325750040e-003
2.29086765276776e+002	3.87997626517153e+000,-4.07511406037042e-003
2.34422881531991e+002	3.87997610517666e+000,-4.17003553126495e-003
2.39883291901947e+002	3.87997593764147e+000,-4.26716799798966e-003
2.45470891568501e+002	3.87997576221060e+000,-4.36656296059117e-003
2.51188643150956e+002	3.87997557851194e+000,-4.46827311865894e-003
2.57039578276885e+002	3.87997538615584e+000,-4.57235239926282e-003
2.63026799189536e+002	3.87997518473430e+000,-4.67885598554112e-003
2.69153480392690e+002	3.87997497382006e+000,-4.78784034595428e-003
2.75422870333815e+002	3.87997475296576e+000,-4.89936326421973e-003
2.81838293126443e+002	3.87997452170294e+000,-5.01348386994369e-003
2.88403150312659e+002	3.87997427954105e+000,-5.13026266996617e-003
2.95120922666637e+002	3.87997402596646e+000,-5.24976158043573e-003
3.01995172040200e+002	3.87997376044128e+000,-5.37204395963098e-003
3.09029543251357e+002	3.87997348240231e+000,-5.49717464154626e-003
3.16227766016836e+002	3.87997319125981e+000,-5.62521997025917e-003
3.23593656929626e+002	3.87997288639621e+000,-5.75624783509810e-003
3.31131121482589e+002	3.87997256716487e+000,-5.89032770662859e-003
3.38844156139200e+002	3.87997223288866e+000,-6.02753067347726e-003
3.46736850452529e+002	3.87997188285854e+000,-6.16792948001300e-003
3.54813389233573e+002	3.87997151633206e+000,-6.31159856490526e-003
3.63078054770099e+002	3.87997113253176e+000,-6.45861410057979e-003
3.71535229097170e+002	3.87997073064358e+000,-6.60905403359289e-003
3.80189396320558e+002	3.87997030981505e+000,-6.76299812594511e-003
3.89045144994278e+002	3.87996986915355e+000,-6.92052799735677e-003
3.98107170553494e+002	3.87996940772440e+000,-7.08172716852714e-003
4.07380277804110e+002	3.87996892454883e+000,-7.24668110540049e-003
4.16869383470332e+002	3.87996841860200e+000,-7.41547726446219e-003
4.26579518801589e+002	3.87996788881073e+000,-7.58820513908893e-003
4.36515832240163e+002	3.87996733405127e+000,-7.76495630697737e-003
4.46683592150960e+002	3.87996675314693e+000,-7.94582447867645e-003
4.57088189614872e+002	3.87996614486554e+000,-8.13090554724885e-003
4.67735141287195e+002	3.87996550791687e+000,-8.32029763908787e-003
4.78630092322635e+002	3.87996484094990e+000,-8.51410116591647e-003
4.89778819368443e+002	3.87996414254992e+000,-8.71241887799605e-003
5.01187233627268e+002	3.87996341123554e+000,-8.91535591857288e-003
5.12861383991361e+002	3.87996264545560e+000,-9.12301987959100e-003
5.24807460249769e+002	3.87996184358578e+000,-9.33552085870084e-003
5.37031796370249e+002	3.87996100392525e+000,-9.55297151759379e-003
5.49540873857620e+002	3.87996012469302e+000,-9.77548714169325e-003
5.62341325190345e+002	3.87995920402415e+000,-1.00031857012337e-002
5.75439937337152e+002	3.87995823996582e+000,-1.02361879137602e-002
5.88843655355584e+002	3.87995723047319e+000,-1.04746173080803e-002
6.02559586074353e+002	3.87995617340503e+000,-1.07186002897037e-002
6.16595001861477e+002	3.87995506651922e+000,-1.09682662078019e-002
6.30957344480188e+002	3.87995390746797e+000,-1.12237474237255e-002
6.45654229034650e+002	3.87995269379284e+000,-1.14851793811124e-002
6.60693448007591e+002	3.87995142291953e+000,-1.17527006776266e-002
6.76082975391976e+002	3.87995009215244e+000,-1.20264531383630e-002
6.91830970918931e+002	3.87994869866892e+000,-1.23065818909580e-002
7.07945784384132e+002	3.87994723951331e+000,-1.25932354424445e-002
7.24435960074984e+002	3.87994571159063e+000,-1.28865657578928e-002
7.41310241300911e+002	3.87994411166009e+000,-1.31867283408773e-002
7.58577575029177e+002	3.87994243632815e+000,-1.34938823158113e-002
7.76247116628685e+002	3.87994068204133e+000,-1.38081905121946e-002
7.94328234724275e+002	3.87993884507873e+000,-1.41298195508156e-002
8.12830516164092e+002	3.87993692154406e+000,-1.44589399319549e-002
8.31763771102664e+002	3.87993490735743e+000,-1.47957261256356e-002
