#Digilent WaveForms Impedance Analyzer
#Device Name: Discovery2
#Serial Number: SN:210321A364C9
#Date Time: 
#Digilent WaveForms Impedance Analyzer Trace#Trace: Trace
#Start: 20 Hz
#Stop: 20000 Hz
#Steps: 151
#Resistor: 100000 O
#Average: 1
#ProbeResistance: 1.04e+06 O
#ProbeCapacitance: 4.3e-11 F
#Compensation:none
#Wavegen: Wavegen1
#Amplitude: 0.447 V
#Offset: 0 V
#Amplification: 1 X
#Settle: 0.01 s
#MinPeriods: 16
#Scale: Logarithmic
#Channel: Channel 1
#Range: 5.5024 V
#Offset: -1.4451e-05 V
#Attenuation: 1 X
#Channel: Channel 2
#Range: 5.48701 V
#Offset: -0.000319257 V
#Attenuation: 1 X

Frequency (Hz),Trace th (deg),Trace |Z| (Ohm)
20.00000000000002,-0.04092537905640607,499849.778942682
20.94257096101801,-0.03091696139942684,499662.8053431427
21.92956392286372,-0.04048718641938402,499830.2963946396
22.96307242993768,-0.04527498448121282,499758.9982427479
24.04528869234826,-0.04024757024580966,499817.3674443275
25.17850823588337,-0.04778635612280522,499834.5773689378
26.36513477112818,-0.04689833916790052,499694.3875768383
27.60768529205771,-0.02978142906107231,499654.0131006371
28.90879541491859,-0.04807986210683014,499901.7287458821
30.2712249687242,-0.07605551599310684,499750.1799535234
31.69786384922228,-0.06671064269595767,499725.3538178697
33.19173814875126,-0.07869227930036091,499772.9751427216
34.75601657498753,-0.07115228793133963,499843.5306681443
36.39401717219969,-0.08091105692765554,499727.1767005787
38.109214359265,-0.07997931030282157,499797.2390607978
39.90524629937762,-0.07976096511274552,499564.7103418278
41.78592261708081,-0.05493907974726793,500016.6919236146
43.75523247899108,-0.1929446729374473,500121.8261212935
45.81735305535549,-0.2853966422913021,499245.7136388065
47.97665838038985,-0.2385950490834001,497958.6217552758
50.23772863019164,-0.01892750753409299,501695.2176370457
52.60535983790768,0.152715519037189,499570.7189029947
55.08457406676338,0.05869725459119583,501135.9017595733
57.68063006253217,-0.07538875918473492,500704.6548426581
60.39903440804039,-0.1288922173341814,498959.3367738693
63.24555320336765,-0.1182706787025282,499446.1120098048
66.22622429651828,-0.1344757027033704,499609.3987720077
69.34737009050633,-0.1373349431133979,499717.6361418581
72.61561095402035,-0.1539793115754547,499817.7983472397
76.03787926411233,-0.1628070190358558,499696.4324124872
79.62143411069947,-0.1581552965435569,499660.9819583511
83.37387669406719,-0.1662827248089367,499806.4015070257
87.30316644803331,-0.2018566626874065,499741.0337081093
91.41763792297505,-0.158198945598055,499460.2489826145
95.7260184645278,-0.2200802964117199,499372.0851525567
100.2374467254546,-0.2440821622355749,499708.8753090348
104.9614920499546,-0.2091417312636479,500018.3001619701
109.9081747715251,-0.2494824615473979,499311.8186884628
115.0879874674316,-0.2531600306996066,499675.4925476045
120.5119172148716,-0.262843223613776,499649.4791077342
126.1914688960387,-0.2489003802936392,499657.609130508
132.1386896015193,-0.2673313743528651,499743.7929785069
138.3661941837874,-0.2775791687488467,499588.8977090416
144.8871920149981,-0.2852860858830076,499585.8402433657
151.7155150058369,-0.3038446840442049,499659.3017067524
158.8656469448564,-0.3094326403772854,499576.5693608744
166.3527542205344,-0.3262668629543305,499826.5221761396
174.1927179912163,-0.3361010803580141,499748.5386667773
182.4021678711821,-0.3770919781540462,499697.7775206312
190.9985172042874,-0.3963410173126835,499713.923862468
200,-0.3819354845129743,499510.8394299973
209.4257096101801,-0.4317444584564176,499704.9958868371
219.2956392286371,-0.4273370554406464,499798.4491279359
229.6307242993766,-0.4766034351671923,499587.4274492763
240.4528869234827,-0.5005898910536356,499643.6732079514
251.7850823588336,-0.4985774603713455,499627.9181634792
263.6513477112815,-0.5349394416217269,499723.0375665254
276.0768529205772,-0.5684761564053953,499578.9944232864
289.0879541491857,-0.5767372085882709,499605.446373769
302.7122496872418,-0.6111772707779209,499555.8677771384
316.978638492223,-0.6288743313759776,499676.5563206816
331.9173814875124,-0.6621725174580537,499655.3093484484
347.5601657498752,-0.7191906339521575,499602.1766879322
363.9401717219967,-0.7089931478150563,499391.8203455257
381.0921435926499,-0.7416080377460061,499521.4541093414
399.0524629937762,-0.7819601013521125,499895.201486809
417.8592261708079,-0.815651302140879,499462.2281048586
437.5523247899108,-0.9164003176365308,499748.0347565931
458.1735305535549,-0.9185236314937406,499927.1137072744
479.7665838038982,-0.9580100851872698,499212.5237385092
502.3772863019165,-0.9880837973197087,499743.2107723086
526.0535983790769,-1.03666817789048,499443.7293750232
550.8457406676334,-1.094191913354341,499715.8360965737
576.8063006253217,-1.142262204716227,499724.397215285
603.9903440804038,-1.221779688686856,499393.9028034236
632.4555320336763,-1.249990590091177,499331.8269693565
662.2622429651825,-1.369071267454845,499535.5236611273
693.4737009050633,-1.372176555905575,499145.4843201662
726.1561095402031,-1.444475819640143,499330.0701252547
760.3787926411225,-1.479600907916011,499848.0412401704
796.2143411069947,-1.55127852832172,499847.6299406043
833.7387669406713,-1.673502950788639,499268.4777689197
873.0316644803322,-1.713610735159752,499555.3484117076
914.1763792297504,-1.799121026416949,499365.0129382432
957.2601846452776,-1.865123321434079,499558.9442572637
1002.374467254545,-1.974740469409943,499275.0623118441
1049.614920499546,-2.075881427010065,499469.6261973499
1099.081747715249,-2.168184659953846,499392.1272295046
1150.879874674314,-2.278473785894943,499056.9376951259
1205.119172148716,-2.375438997983948,499282.0444940281
1261.914688960387,-2.459289734765848,499071.5116265862
1321.386896015193,-2.599834724212959,499095.4087071722
1383.661941837873,-2.758975539227097,498887.9178538917
1448.87192014998,-2.873861877624443,499281.8540567178
1517.155150058369,-2.990632680440731,498813.1019894459
1588.656469448563,-3.123590848548056,498961.9287287241
1663.527542205343,-3.246464248872317,498940.3804841547
1741.927179912161,-3.424648134504329,498919.4408720717
1824.02167871182,-3.624841014904215,498563.9294770624
1909.985172042873,-3.753084744441026,498507.4348420906
2000,-3.923743799565478,498634.8715905101
2094.2570961018,-4.120531453010941,498434.9541144078
2192.956392286371,-4.331680070924913,498459.6947446248
2296.307242993766,-4.542758248579807,498199.6412949092
2404.528869234827,-4.721083891274776,498058.0456027127
2517.850823588335,-4.956024963198016,497814.10450367
2636.513477112815,-5.20990795024717,497891.8673383922
2760.768529205771,-5.419549561294315,497486.9612583735
2890.879541491855,-5.668563136945557,497219.9752791915
3027.122496872418,-5.931964771160342,497267.3009885339
3169.786384922227,-6.208390431604034,496926.7182775977
3319.173814875122,-6.546457970508458,496970.0720033361
3475.601657498753,-6.832980441025617,496810.7611516724
3639.401717219967,-7.131495013153804,495794.7158653018
3810.921435926495,-7.458198486839899,495900.0454510556
3990.524629937762,-7.798792715031029,495330.7532362934
4178.59226170808,-8.189157822371003,495028.0773321779
4375.523247899107,-8.527992475561222,494613.541666752
4581.735305535546,-8.961585493202046,494166.5016748313
4797.665838038982,-9.439308454808776,493511.0573670386
5023.772863019163,-9.834201903078259,492358.094401091
5260.535983790764,-10.26687746058275,492165.4604696834
5508.457406676334,-10.75531147761294,491215.1199608305
5768.063006253211,-11.21877543893095,491151.9022826348
6039.903440804034,-11.74775046022747,489923.7693233059
6324.555320336761,-12.2863678422126,488168.1552136524
6622.622429651821,-12.87987874194823,487761.0054860445
6934.737009050635,-13.44997829237289,486551.5503412794
7261.56109540203,-14.07142658282012,485312.5428674459
7603.787926411224,-14.75328679408875,484404.8218050641
7962.143411069947,-15.37903405233201,482369.5198199044
8337.387669406708,-16.08522964232585,481343.1308315997
8730.316644803321,-16.79844012535737,479448.6436219605
9141.763792297505,-17.56029323949414,478105.0256356194
9572.601846452766,-18.29573184980814,475824.6498670672
10023.74467254545,-19.16012764514793,473491.184747354
10496.14920499545,-19.93416278213694,471137.620069775
10990.81747715249,-20.83744024288323,468196.0587415802
11508.79874674314,-21.69244339068322,465216.1683723255
12051.19172148715,-22.67533565468873,462500.514332795
12619.14688960387,-23.60484120255907,459649.1344646519
13213.86896015192,-24.63406289497585,455420.1716372427
13836.61941837873,-25.62294659850713,452735.5567069334
14488.71920149981,-26.62190247147579,448376.5981182361
15171.55150058367,-27.78807403927005,444583.4142991725
15886.56469448563,-28.87986051786302,439570.9735941485
16635.27542205343,-29.96165834767288,434898.5791502109
17419.27179912161,-31.1204448496589,430076.1796721111
18240.2167871182,-32.31948443624079,425007.4349760502
19099.85172042871,-33.56570143240121,419045.8669136781
20000,-34.84094534700137,413997.4370661101
